      1)        19.9  Rx         01AB  8  79 F7 F1 10 00 60 FF 0B 
      2)        20.1  Rx         01AC  8  FF 01 00 00 00 00 00 00 
      3)        24.8  Rx         0126  8  80 3A 5F FF 7F FF 04 00 
      4)        25.1  Rx         0127  8  00 00 00 00 00 00 00 00 
      5)        43.4  Rx         037F  8  AA D0 52 20 01 02 00 00 
      6)        64.7  Rx         0505  8  16 02 00 00 00 00 FF FF 
      7)        74.6  Rx         03C1  8  65 00 00 00 00 00 00 00 
      8)        74.9  Rx         0126  8  56 A6 64 FF 7F FF 04 00 
      9)        75.1  Rx         03C2  8  81 00 1B 40 00 00 00 00 
     10)        75.4  Rx         0127  8  00 00 00 00 00 00 00 00 
     11)        94.1  Rx         016B  8  C1 6D 29 00 01 00 00 00 
     12)        94.4  Rx         0166  8  FF 7A 29 00 00 00 00 00 
     13)        94.6  Rx         0167  8  00 00 00 00 00 00 00 00 
     14)        95.0  Rx         0168  8  00 00 00 00 00 00 00 00 
     15)        95.2  Rx         016C  8  00 00 80 80 80 80 00 01 
     16)        95.5  Rx         016D  8  00 00 00 00 10 00 00 00 
     17)        95.8  Rx         016E  8  00 00 00 00 00 00 00 00 
     18)        96.0  Rx         0171  8  D0 E3 29 00 00 00 00 00 
     19)        96.3  Rx         0172  8  00 00 00 00 00 00 00 00 
     20)       119.8  Rx         01AB  8  E6 9F F6 10 00 60 FF 0B 
     21)       120.0  Rx         0227  8  61 00 00 00 30 01 F8 07 
     22)       120.3  Rx         01AC  8  FF 01 00 00 00 00 00 00 
     23)       120.5  Rx         0472  8  1F 39 FF 83 48 42 D8 3C 
     24)       120.8  Rx         0226  8  5E 1F FE FF FF D3 FF 80 
     25)       121.0  Rx         0473  8  64 C1 FF 15 00 00 00 03 
     26)       124.8  Rx         0126  8  25 9F 69 FF 7F FF 04 00 
     27)       125.1  Rx         0127  8  00 00 00 00 00 00 00 00 
     28)       143.4  Rx         037F  8  7C E0 52 20 01 02 00 00 
     29)       163.5  Rx         0410  8  64 10 FF FF FF FF FF FF 
     30)       163.7  Rx         0412  8  DC 00 00 00 00 00 00 00 
     31)       163.9  Rx         0411  8  07 11 00 00 10 04 44 04 
     32)       164.2  Rx         0413  8  08 60 00 00 00 00 00 00 
     33)       164.4  Rx         0516  8  05 02 00 00 00 00 FF FF 
     34)       164.7  Rx         0414  8  3C 20 40 00 08 00 00 00 
     35)       165.0  Rx         0416  8  E5 40 00 00 00 00 54 01 
     36)       165.2  Rx         0417  8  61 10 00 90 10 00 00 00 
     37)       165.5  Rx         0418  8  60 20 00 80 02 1C 00 00 
     38)       165.7  Rx         0419  8  B1 10 00 00 FC FF FF 03 
     39)       174.9  Rx         0126  8  BA F7 6E FF 7F FF 04 00 
     40)       175.1  Rx         0127  8  00 00 00 00 00 00 00 00 
     41)       194.1  Rx         016B  8  32 F3 2E 00 01 00 00 00 
     42)       194.4  Rx         0166  8  F6 FF 2E 00 00 00 00 00 
     43)       194.7  Rx         0167  8  00 00 00 00 00 00 00 00 
     44)       194.9  Rx         0168  8  00 00 00 00 00 00 00 00 
     45)       195.2  Rx         016C  8  00 00 80 80 80 80 00 01 
     46)       195.4  Rx         016D  8  00 00 00 00 10 00 00 00 
     47)       195.7  Rx         016E  8  00 00 00 00 00 00 00 00 
     48)       195.9  Rx         0171  8  4F 8B 2E 00 00 00 00 00 
     49)       196.2  Rx         0172  8  00 00 00 00 00 00 00 00 
     50)       219.9  Rx         01AB  8  95 A6 FB 10 00 60 FF 0B 
     51)       220.2  Rx         01AC  8  FF 01 00 00 00 00 00 00 
     52)       224.8  Rx         0126  8  C3 ED 73 FF 7F FF 04 00 
     53)       225.1  Rx         0127  8  00 00 00 00 00 00 00 00 
     54)       243.4  Rx         037F  8  6C 00 52 20 01 02 00 00 
     55)       264.7  Rx         0505  8  16 02 00 00 00 00 FF FF 
     56)       274.7  Rx         03C1  8  65 00 00 00 00 00 00 00 
     57)       274.9  Rx         0126  8  0B 14 78 FF 7F FF 04 00 
     58)       275.1  Rx         03C2  8  81 00 1B 40 00 00 00 00 
     59)       275.4  Rx         0127  8  00 00 00 00 00 00 00 00 
     60)       294.2  Rx         016B  8  FA F1 33 00 01 00 00 00 
     61)       294.4  Rx         0166  8  93 FC 33 00 00 00 00 00 
     62)       294.7  Rx         0167  8  00 00 00 00 00 00 00 00 
     63)       295.0  Rx         0168  8  00 00 00 00 00 00 00 00 
     64)       295.2  Rx         016C  8  00 00 80 80 80 80 00 01 
     65)       295.5  Rx         016D  8  00 00 00 00 10 00 00 00 
     66)       295.7  Rx         016E  8  00 00 00 00 00 00 00 00 
     67)       296.0  Rx         0171  8  36 91 33 00 00 00 00 00 
     68)       296.2  Rx         0172  8  00 00 00 00 00 00 00 00 
     69)       319.8  Rx         01AB  8  1A BE 00 10 00 60 FF 0B 
     70)       320.1  Rx         0227  8  61 00 00 00 30 01 F8 07 
     71)       320.3  Rx         01AC  8  FF 01 00 00 00 00 00 00 
     72)       320.6  Rx         0472  8  50 AD 00 83 48 42 D8 3C 
     73)       320.8  Rx         0226  8  27 2F 00 FF FF D3 FF 80 
     74)       321.0  Rx         0473  8  2B 55 00 15 00 00 00 03 
     75)       324.8  Rx         0126  8  FD 3C 7D FF 7F FF 04 00 
     76)       325.1  Rx         0127  8  00 00 00 00 00 00 00 00 
     77)       343.4  Rx         037F  8  D5 10 52 20 01 02 00 00 
     78)       363.5  Rx         0410  8  64 10 FF FF FF FF FF FF 
     79)       363.7  Rx         0412  8  DC 00 00 00 00 00 00 00 
     80)       364.0  Rx         0411  8  07 11 00 00 10 04 44 04 
     81)       364.2  Rx         0413  8  08 60 00 00 00 00 00 00 
     82)       364.5  Rx         0516  8  05 02 00 00 00 00 FF FF 
     83)       364.7  Rx         0414  8  3C 20 40 00 08 00 00 00 
     84)       365.0  Rx         0416  8  E5 40 00 00 00 00 54 01 
     85)       365.2  Rx         0417  8  61 10 00 90 10 00 00 00 
     86)       365.5  Rx         0418  8  60 20 00 80 02 1C 00 00 
     87)       365.7  Rx         0419  8  B1 10 00 00 FC FF FF 03 
     88)       374.9  Rx         0126  8  A0 A4 82 FF 7F FF 04 00 
     89)       375.1  Rx         0127  8  00 00 00 00 00 00 00 00 
     90)       394.1  Rx         016B  8  42 F0 38 00 01 00 00 00 
     91)       394.4  Rx         0166  8  AF 0D 38 00 00 00 00 00 
     92)       394.7  Rx         0167  8  00 00 00 00 00 00 00 00 
     93)       395.0  Rx         0168  8  00 00 00 00 00 00 00 00 
     94)       395.2  Rx         016C  8  00 00 80 80 80 80 00 01 
     95)       395.5  Rx         016D  8  00 00 00 00 10 00 00 00 
     96)       395.7  Rx         016E  8  00 00 00 00 00 00 00 00 
     97)       396.0  Rx         0171  8  BB 07 38 00 00 00 00 00 
     98)       396.3  Rx         0172  8  01 00 00 00 00 00 00 00 
     99)       419.8  Rx         01AB  8  EC 96 05 10 00 60 FF 0B 
    100)       420.1  Rx         01AC  8  FF 01 00 00 00 00 00 00 
    101)       424.8  Rx         0126  8  56 8C 87 FF 7F FF 04 00 
    102)       425.1  Rx         0127  8  00 00 00 00 00 00 00 00 
    103)       443.4  Rx         037F  8  03 20 52 20 01 02 00 00 
    104)       464.6  Rx         0505  8  16 02 00 00 00 00 FF FF 
    105)       474.6  Rx         03C1  8  65 00 00 00 00 00 00 00 
    106)       474.9  Rx         0126  8  9E 75 8C FF 7F FF 04 00 
    107)       475.1  Rx         03C2  8  81 00 1B 40 00 00 00 00 
    108)       475.4  Rx         0127  8  00 00 00 00 00 00 00 00 
    109)       494.1  Rx         016B  8  3D DC 3D 00 01 00 00 00 
    110)       494.4  Rx         0166  8  A0 E6 3D 00 00 00 00 00 
    111)       494.6  Rx         0167  8  00 00 00 00 00 00 00 00 
    112)       494.9  Rx         0168  8  00 00 00 00 00 00 00 00 
    113)       495.2  Rx         016C  8  00 00 80 80 80 80 00 01 
    114)       495.4  Rx         016D  8  00 00 00 00 10 00 00 00 
    115)       495.7  Rx         016E  8  00 00 00 00 00 00 00 00 
    116)       495.9  Rx         0171  8  4D 2F 3D 00 00 00 00 00 
    117)       496.2  Rx         0172  8  01 00 00 00 00 00 00 00 
    118)       519.8  Rx         01AB  8  F6 EF 0A 10 00 60 FF 0B 
    119)       520.1  Rx         0227  8  61 00 00 00 30 01 F8 07 
    120)       520.3  Rx         01AC  8  FF 01 00 00 00 00 00 00 
    121)       520.5  Rx         0472  8  83 EA 01 83 48 42 D8 3C 
    122)       520.8  Rx         0226  8  4E 6F 02 FF FF D3 FF 80 
    123)       521.0  Rx         0473  8  F8 12 01 15 00 00 00 03 
    124)       524.8  Rx         0126  8  E7 6F 91 FF 7F FF 04 00 
    125)       525.1  Rx         0127  8  00 00 00 00 00 00 00 00 
    126)       543.4  Rx         037F  8  BA 30 52 20 01 02 00 00 
    127)       563.5  Rx         0410  8  64 10 FF FF FF FF FF FF 
    128)       563.8  Rx         0412  8  DC 00 00 00 00 00 00 00 
    129)       564.0  Rx         0411  8  07 11 00 00 10 04 44 04 
    130)       564.3  Rx         0413  8  08 60 00 00 00 00 00 00 
    131)       564.5  Rx         0516  8  05 02 00 00 00 00 FF FF 
    132)       564.8  Rx         0414  8  3C 20 40 00 08 00 00 00 
    133)       565.0  Rx         0416  8  E5 40 00 00 00 00 54 01 
    134)       565.3  Rx         0417  8  61 10 00 90 10 00 00 00 
    135)       565.5  Rx         0418  8  60 20 00 80 02 1C 00 00 
    136)       565.8  Rx         0419  8  B1 10 00 00 FC FF FF 03 
    137)       574.9  Rx         0126  8  78 07 96 FF 7F FF 04 00 
    138)       575.2  Rx         0127  8  00 00 00 00 00 00 00 00 
    139)       594.2  Rx         016B  8  A5 D6 42 00 01 00 00 00 
    140)       594.4  Rx         0166  8  08 1A 42 00 00 00 00 00 
    141)       594.7  Rx         0167  8  00 00 00 00 00 00 00 00 
    142)       595.0  Rx         0168  8  00 00 00 00 00 00 00 00 
    143)       595.2  Rx         016C  8  00 00 80 80 80 80 00 01 
    144)       595.5  Rx         016D  8  00 00 00 00 10 00 00 00 
    145)       595.7  Rx         016E  8  00 00 00 00 00 00 00 00 
    146)       596.0  Rx         0171  8  24 D0 42 00 00 00 00 00 
    147)       596.3  Rx         0172  8  00 00 00 00 00 00 00 00 
    148)       619.8  Rx         01AB  8  00 C7 0F 10 00 60 FF 0B 
    149)       620.0  Rx         01AC  8  FF 01 00 00 00 00 00 00 
    150)       624.8  Rx         0126  8  0B 3E 9B FF 7F FF 04 00 
    151)       625.1  Rx         0127  8  00 00 00 00 00 00 00 00 
    152)       643.5  Rx         037F  8  B2 40 52 20 01 02 00 00 
    153)       664.7  Rx         0505  8  16 02 00 00 00 00 FF FF 
    154)       674.7  Rx         03C1  8  65 00 00 00 00 00 00 00 
    155)       675.0  Rx         0126  8  DD A2 A0 FF 7F FF 04 00 
    156)       675.2  Rx         03C2  8  81 00 1B 40 00 00 00 00 
    157)       675.4  Rx         0127  8  00 00 00 00 00 00 00 00 
    158)       694.2  Rx         016B  8  DA FA 47 00 01 00 00 00 
    159)       694.4  Rx         0166  8  07 F1 47 00 00 00 00 00 
    160)       694.7  Rx         0167  8  00 00 00 00 00 00 00 00 
    161)       695.0  Rx         0168  8  00 00 00 00 00 00 00 00 
    162)       695.2  Rx         016C  8  00 00 80 80 80 80 00 01 
    163)       695.5  Rx         016D  8  00 00 00 00 10 00 00 00 
    164)       695.8  Rx         016E  8  00 00 00 00 00 00 00 00 
    165)       696.0  Rx         0171  8  D2 F8 47 00 00 00 00 00 
    166)       696.3  Rx         0172  8  00 00 00 00 00 00 00 00 
    167)       719.8  Rx         01AB  8  C2 1D 14 10 00 60 FF 0B 
    168)       720.0  Rx         0227  8  61 00 00 00 30 01 F8 07 
    169)       720.3  Rx         01AC  8  FF 01 00 00 00 00 00 00 
    170)       720.5  Rx         0472  8  F6 22 02 83 48 42 D8 3C 
    171)       720.8  Rx         0226  8  F5 AF 04 FF FF D3 FF 80 
    172)       721.0  Rx         0473  8  8D DA 02 15 00 00 00 03 
    173)       724.9  Rx         0126  8  2B 8A A5 FF 7F FF 04 00 
    174)       725.1  Rx         0127  8  00 00 00 00 00 00 00 00 
    175)       743.5  Rx         037F  8  0B 50 52 20 01 02 00 00 
    176)       763.5  Rx         0410  8  64 10 FF FF FF FF FF FF 
    177)       763.8  Rx         0412  8  DC 00 00 00 00 00 00 00 
    178)       764.0  Rx         0411  8  07 11 00 00 10 04 44 04 
    179)       764.3  Rx         0413  8  08 60 00 00 00 00 00 00 
    180)       764.5  Rx         0516  8  05 02 00 00 00 00 FF FF 
    181)       764.8  Rx         0414  8  3C 20 40 00 08 00 00 00 
    182)       765.0  Rx         0416  8  E5 40 00 00 00 00 54 01 
    183)       765.3  Rx         0417  8  61 10 00 90 10 00 00 00 
    184)       765.5  Rx         0418  8  60 20 00 80 02 1C 00 00 
    185)       765.8  Rx         0419  8  B1 10 00 00 FC FF FF 03 
    186)       766.0  Rx         048F  8  E3 10 41 00 01 00 00 00 
    187)       774.9  Rx         0126  8  31 F3 AA FF 7F FF 04 00 
    188)       775.2  Rx         0127  8  00 00 00 00 00 00 00 00 
    189)       794.1  Rx         016B  8  62 FB 4C 00 01 00 00 00 
    190)       794.4  Rx         0166  8  3B 00 4C 00 00 00 00 00 
    191)       794.7  Rx         0167  8  00 00 00 00 00 00 00 00 
    192)       795.0  Rx         0168  8  00 00 00 00 00 00 00 00 
    193)       795.3  Rx         016C  8  00 00 80 80 80 80 00 01 
    194)       795.5  Rx         016D  8  00 00 00 00 10 00 00 00 
    195)       795.8  Rx         016E  8  00 00 00 00 00 00 00 00 
    196)       796.0  Rx         0171  8  1A 01 4C 00 00 00 00 00 
    197)       796.3  Rx         0172  8  00 00 00 00 00 00 00 00 
    198)       819.9  Rx         01AB  8  B1 24 19 10 00 60 FF 0B 
    199)       820.1  Rx         01AC  8  FF 01 00 00 00 00 00 00 
    200)       824.9  Rx         0126  8  C7 DB AF FF 7F FF 04 00 
    201)       825.1  Rx         0127  8  00 00 00 00 00 00 00 00 
    202)       843.5  Rx         037F  8  DD 60 52 20 01 02 00 00 
    203)       864.7  Rx         0505  8  16 02 00 00 00 00 FF FF 
    204)       874.7  Rx         03C1  8  65 00 00 00 00 00 00 00 
    205)       874.9  Rx         0126  8  05 01 B4 FF 7F FF 04 00 
    206)       875.2  Rx         03C2  8  81 00 1B 40 00 00 00 00 
    207)       875.4  Rx         0127  8  00 00 00 00 00 00 00 00 
    208)       894.1  Rx         016B  8  AA F9 51 00 01 00 00 00 
    209)       894.4  Rx         0166  8  5E 03 51 00 00 00 00 00 
    210)       894.7  Rx         0167  8  00 00 00 00 00 00 00 00 
    211)       894.9  Rx         0168  8  00 00 00 00 00 00 00 00 
    212)       895.2  Rx         016C  8  00 00 80 80 80 80 00 01 
    213)       895.4  Rx         016D  8  00 00 00 00 10 00 00 00 
    214)       895.7  Rx         016E  8  00 00 00 00 00 00 00 00 
    215)       895.9  Rx         0171  8  26 74 51 00 00 00 00 00 
    216)       896.2  Rx         0172  8  01 00 00 00 00 00 00 00 
    217)       919.8  Rx         01AB  8  2E 4C 1E 10 00 60 FF 0B 
    218)       920.1  Rx         0227  8  61 00 00 00 30 01 F8 07 
    219)       920.3  Rx         01AC  8  FF 01 00 00 00 00 00 00 
    220)       920.6  Rx         0472  8  25 65 03 83 48 42 D8 3C 
    221)       920.8  Rx         0226  8  9C EF 06 FF FF D3 FF 80 
    222)       921.0  Rx         0473  8  5E 9D 03 15 00 00 00 03 
    223)       924.8  Rx         0126  8  76 38 B9 FF 7F FF 04 00 
    224)       925.1  Rx         0127  8  00 00 00 00 00 00 00 00 
    225)       943.5  Rx         037F  8  64 70 52 20 01 02 00 00 
    226)       963.6  Rx         0410  8  64 10 FF FF FF FF FF FF 
    227)       963.8  Rx         0412  8  DC 00 00 00 00 00 00 00 
    228)       964.0  Rx         0411  8  07 11 00 00 10 04 44 04 
    229)       964.3  Rx         0413  8  08 60 00 00 00 00 00 00 
    230)       964.5  Rx         0516  8  05 02 00 00 00 00 FF FF 
    231)       964.8  Rx         0414  8  3C 20 40 00 08 00 00 00 
    232)       965.1  Rx         0416  8  E5 40 00 00 00 00 54 01 
    233)       965.3  Rx         0417  8  61 10 00 90 10 00 00 00 
    234)       965.5  Rx         0418  8  60 20 00 80 02 1C 00 00 
    235)       965.8  Rx         0419  8  B1 10 00 00 FC FF FF 03 
    236)       974.9  Rx         0126  8  E9 50 BE FF 7F FF 04 00 
    237)       975.1  Rx         0127  8  00 00 00 00 00 00 00 00 
    238)       994.2  Rx         016B  8  59 67 56 00 01 00 00 00 
    239)       994.4  Rx         0166  8  57 86 56 00 00 00 00 00 
    240)       994.7  Rx         0167  8  00 00 00 00 00 00 00 00 
    241)       994.9  Rx         0168  8  00 00 00 00 00 00 00 00 
    242)       995.2  Rx         016C  8  00 00 80 80 80 80 00 01 
    243)       995.4  Rx         016D  8  00 00 00 00 10 00 00 00 
    244)       995.7  Rx         016E  8  00 00 00 00 00 00 00 00 
    245)       996.0  Rx         0171  8  B9 1C 56 00 00 00 00 00 
    246)       996.2  Rx         0172  8  01 00 00 00 00 00 00 00 
    247)      1019.8  Rx         01AB  8  43 10 23 10 00 60 FF 0B 
    248)      1020.1  Rx         01AC  8  FF 01 00 00 00 00 00 00 
    249)      1024.8  Rx         0126  8  AC 80 C3 FF 7F FF 04 00 
    250)      1025.1  Rx         0127  8  00 00 00 00 00 00 00 00 
    251)      1043.5  Rx         037F  8  CD 80 52 20 01 02 00 00 
    252)      1064.7  Rx         0505  8  16 02 00 00 00 00 FF FF 
    253)      1074.7  Rx         03C1  8  65 00 00 00 00 00 00 00 
    254)      1074.9  Rx         0126  8  64 79 C8 FF 7F FF 04 00 
    255)      1075.1  Rx         03C2  8  81 00 1B 40 00 00 00 00 
    256)      1075.4  Rx         0127  8  00 00 00 00 00 00 00 00 
    257)      1094.2  Rx         016B  8  54 A1 5B 00 01 00 00 00 
    258)      1094.4  Rx         0166  8  61 C5 5B 00 00 00 00 00 
    259)      1094.6  Rx         0167  8  00 00 00 00 00 00 00 00 
    260)      1094.9  Rx         0168  8  00 00 00 00 00 00 00 00 
    261)      1095.1  Rx         016C  8  00 00 80 80 80 80 00 01 
    262)      1095.4  Rx         016D  8  00 00 00 00 10 00 00 00 
    263)      1095.7  Rx         016E  8  00 00 00 00 00 00 00 00 
    264)      1095.9  Rx         0171  8  8F 4A 5B 00 00 00 00 00 
    265)      1096.2  Rx         0172  8  00 00 00 00 00 00 00 00 
    266)      1119.9  Rx         01AB  8  8B E9 28 10 00 60 FF 0B 
    267)      1120.1  Rx         0227  8  61 00 00 00 30 01 F8 07 
    268)      1120.3  Rx         01AC  8  FF 01 00 00 00 00 00 00 
    269)      1120.6  Rx         0472  8  3D A2 04 83 48 42 D8 3C 
    270)      1120.8  Rx         0226  8  A2 3E 08 FF FF D3 FF 80 
    271)      1121.0  Rx         0473  8  46 5A 04 15 00 00 00 03 
    272)      1124.8  Rx         0126  8  92 51 CD FF 7F FF 04 00 
    273)      1125.1  Rx         0127  8  00 00 00 00 00 00 00 00 
    274)      1143.5  Rx         037F  8  74 90 52 20 01 02 00 00 
    275)      1163.6  Rx         0410  8  64 10 FF FF FF FF FF FF 
    276)      1163.8  Rx         0412  8  DC 00 00 00 00 00 00 00 
    277)      1164.1  Rx         0411  8  07 11 00 00 10 04 44 04 
    278)      1164.3  Rx         0413  8  08 60 00 00 00 00 00 00 
    279)      1164.6  Rx         0516  8  05 02 00 00 00 00 FF FF 
    280)      1164.8  Rx         0414  8  3C 20 40 00 08 00 00 00 
    281)      1165.1  Rx         0416  8  E5 40 00 00 00 00 54 01 
    282)      1165.3  Rx         0417  8  61 10 00 90 10 00 00 00 
    283)      1165.5  Rx         0418  8  60 20 00 80 02 1C 00 00 
    284)      1165.8  Rx         0419  8  B1 10 00 00 FC FF FF 03 
    285)      1174.9  Rx         0126  8  82 0B D2 FF 7F FF 04 00 
    286)      1175.1  Rx         0127  8  00 00 00 00 00 00 00 00 
    287)      1194.1  Rx         016B  8  82 FD 60 00 01 00 00 00 
    288)      1194.4  Rx         0166  8  A8 F4 60 00 00 00 00 00 
    289)      1194.6  Rx         0167  8  00 00 00 00 00 00 00 00 
    290)      1195.0  Rx         0168  8  00 00 00 00 00 00 00 00 
    291)      1195.2  Rx         016C  8  00 00 80 80 80 80 00 01 
    292)      1195.5  Rx         016D  8  00 00 00 00 10 00 00 00 
    293)      1195.8  Rx         016E  8  00 00 00 00 00 00 00 00 
    294)      1196.0  Rx         0171  8  59 D6 60 00 00 00 00 00 
    295)      1196.3  Rx         0172  8  00 00 00 00 00 00 00 00 
    296)      1219.8  Rx         01AB  8  7D C1 2D 10 00 60 FF 0B 
    297)      1220.1  Rx         01AC  8  FF 01 00 00 00 00 00 00 
    298)      1224.8  Rx         0126  8  74 23 D7 FF 7F FF 04 00 
    299)      1225.1  Rx         0127  8  00 00 00 00 00 00 00 00 
    300)      1243.5  Rx         037F  8  A2 A0 52 20 01 02 00 00 
    301)      1264.7  Rx         0505  8  16 02 00 00 00 00 FF FF 
    302)      1274.6  Rx         03C1  8  65 00 00 00 00 00 00 00 
    303)      1274.9  Rx         0126  8  BC DA DC FF 7F FF 04 00 
    304)      1275.2  Rx         03C2  8  81 00 1B 40 00 00 00 00 
    305)      1275.4  Rx         0127  8  00 00 00 00 00 00 00 00 
    306)      1294.1  Rx         016B  8  FD D1 65 00 01 00 00 00 
    307)      1294.4  Rx         0166  8  A7 1F 65 00 00 00 00 00 
    308)      1294.7  Rx         0167  8  00 00 00 00 00 00 00 00 
    309)      1295.0  Rx         0168  8  00 00 00 00 00 00 00 00 
    310)      1295.2  Rx         016C  8  00 00 80 80 80 80 00 01 
    311)      1295.5  Rx         016D  8  00 00 00 00 10 00 00 00 
    312)      1295.7  Rx         016E  8  00 00 00 00 00 00 00 00 
    313)      1296.0  Rx         0171  8  AF FE 65 00 00 00 00 00 
    314)      1296.3  Rx         0172  8  00 00 00 00 00 00 00 00 
    315)      1319.8  Rx         01AB  8  6D 9B 32 10 00 60 FF 0B 
    316)      1320.0  Rx         0227  8  61 00 00 00 30 01 F8 07 
    317)      1320.3  Rx         01AC  8  FF 01 00 00 00 00 00 00 
    318)      1320.6  Rx         0472  8  EE E5 05 83 48 42 D8 3C 
    319)      1320.8  Rx         0226  8  CB 7E 0A FF FF D3 FF 80 
    320)      1321.0  Rx         0473  8  95 1D 05 15 00 00 00 03 
    321)      1324.8  Rx         0126  8  D1 86 E1 FF 7F FF 04 00 
    322)      1325.1  Rx         0127  8  00 00 00 00 00 00 00 00 
    323)      1343.6  Rx         037F  8  1B B0 52 20 01 02 00 00 
    324)      1363.6  Rx         0410  8  64 10 FF FF FF FF FF FF 
    325)      1363.9  Rx         0412  8  DC 00 00 00 00 00 00 00 
    326)      1364.1  Rx         0411  8  07 11 00 00 10 04 44 04 
    327)      1364.3  Rx         0413  8  08 60 00 00 00 00 00 00 
    328)      1364.6  Rx         0516  8  05 02 00 00 00 00 FF FF 
    329)      1364.8  Rx         0414  8  3C 20 40 00 08 00 00 00 
    330)      1365.1  Rx         0416  8  E5 40 00 00 00 00 54 01 
    331)      1365.3  Rx         0417  8  61 10 00 90 10 00 00 00 
    332)      1365.6  Rx         0418  8  60 20 00 80 02 1C 00 00 
    333)      1365.8  Rx         0419  8  B1 10 00 00 FC FF FF 03 
    334)      1374.9  Rx         0126  8  4E EE E6 FF 7F FF 04 00 
    335)      1375.1  Rx         0127  8  00 00 00 00 00 00 00 00 
    336)      1394.2  Rx         016B  8  7C A5 6A 00 01 00 00 00 
    337)      1394.4  Rx         0166  8  97 32 6A 00 00 00 00 00 
    338)      1394.7  Rx         0167  8  00 00 00 00 00 00 00 00 
    339)      1394.9  Rx         0168  8  00 00 00 00 00 00 00 00 
    340)      1395.2  Rx         016C  8  00 00 80 80 80 80 00 01 
    341)      1395.4  Rx         016D  8  00 00 00 00 10 00 00 00 
    342)      1395.7  Rx         016E  8  00 00 00 00 00 00 00 00 
    343)      1395.9  Rx         0171  8  F0 E8 6A 00 00 00 00 00 
    344)      1396.2  Rx         0172  8  01 00 00 00 00 00 00 00 
    345)      1419.8  Rx         01AB  8  9B B3 37 10 00 60 FF 0B 
    346)      1420.1  Rx         01AC  8  FF 01 00 00 00 00 00 00 
    347)      1424.8  Rx         0126  8  3D D7 EB FF 7F FF 04 00 
    348)      1425.1  Rx         0127  8  00 00 00 00 00 00 00 00 
    349)      1443.6  Rx         037F  8  13 C0 52 20 01 02 00 00 
    350)      1464.7  Rx         0505  8  16 02 00 00 00 00 FF FF 
    351)      1474.7  Rx         03C1  8  65 00 00 00 00 00 00 00 
    352)      1474.9  Rx         0126  8  FF 0D F0 FF 7F FF 04 00 
    353)      1475.2  Rx         03C2  8  81 00 1B 40 00 00 00 00 
    354)      1475.4  Rx         0127  8  00 00 00 00 00 00 00 00 
    355)      1494.2  Rx         016B  8  03 89 6F 00 01 00 00 00 
    356)      1494.4  Rx         0166  8  98 D9 6F 00 00 00 00 00 
    357)      1494.6  Rx         0167  8  00 00 00 00 00 00 00 00 
    358)      1494.9  Rx         0168  8  00 00 00 00 00 00 00 00 
    359)      1495.1  Rx         016C  8  00 00 80 80 80 80 00 01 
    360)      1495.4  Rx         016D  8  00 00 00 00 10 00 00 00 
    361)      1495.7  Rx         016E  8  00 00 00 00 00 00 00 00 
    362)      1495.9  Rx         0171  8  06 C0 6F 00 00 00 00 00 
    363)      1496.2  Rx         0172  8  01 00 00 00 00 00 00 00 
    364)      1519.8  Rx         01AB  8  53 4A 3C 10 00 60 FF 0B 
    365)      1520.1  Rx         0227  8  61 00 00 00 30 01 F8 07 
    366)      1520.3  Rx         01AC  8  FF 01 00 00 00 00 00 00 
    367)      1520.5  Rx         0472  8  9B 2D 06 83 48 42 D8 3C 
    368)      1520.8  Rx         0226  8  70 BE 0C FF FF D3 FF 80 
    369)      1521.0  Rx         0473  8  E0 D5 06 15 00 00 00 03 
    370)      1524.8  Rx         0126  8  09 25 F5 FF 7F FF 04 00 
    371)      1525.1  Rx         0127  8  00 00 00 00 00 00 00 00 
    372)      1543.6  Rx         037F  8  AA D0 52 20 01 02 00 00 
    373)      1563.6  Rx         0410  8  64 10 FF FF FF FF FF FF 
    374)      1563.8  Rx         0412  8  DC 00 00 00 00 00 00 00 
    375)      1564.1  Rx         0411  8  07 11 00 00 10 04 44 04 
    376)      1564.4  Rx         0413  8  08 60 00 00 00 00 00 00 
    377)      1564.6  Rx         0516  8  05 02 00 00 00 00 FF FF 
    378)      1564.9  Rx         0414  8  3C 20 40 00 08 00 00 00 
    379)      1565.1  Rx         0416  8  E5 40 00 00 00 00 54 01 
    380)      1565.3  Rx         0417  8  61 10 00 90 10 00 00 00 
    381)      1565.6  Rx         0418  8  60 20 00 80 02 1C 00 00 
    382)      1565.8  Rx         0419  8  B1 10 00 00 FC FF FF 03 
    383)      1574.9  Rx         0126  8  13 5C FA FF 7F FF 04 00 
    384)      1575.1  Rx         0127  8  00 00 00 00 00 00 00 00 
    385)      1594.1  Rx         016B  8  7E 4C 74 00 01 00 00 00 
    386)      1594.4  Rx         0166  8  F7 68 74 00 00 00 00 00 
    387)      1594.6  Rx         0167  8  00 00 00 00 00 00 00 00 
    388)      1595.0  Rx         0168  8  00 00 00 00 00 00 00 00 
    389)      1595.2  Rx         016C  8  00 00 80 80 80 80 00 01 
    390)      1595.5  Rx         016D  8  00 00 00 00 10 00 00 00 
    391)      1595.8  Rx         016E  8  00 00 00 00 00 00 00 00 
    392)      1596.0  Rx         0171  8  81 75 74 00 00 00 00 00 
    393)      1596.3  Rx         0172  8  00 00 00 00 00 00 00 00 
    394)      1619.9  Rx         01AB  8  16 9A 41 10 00 60 FF 0B 
    395)      1620.1  Rx         01AC  8  FF 01 00 00 00 00 00 00 
    396)      1624.9  Rx         0126  8  E5 74 FF FF 7F FF 04 00 
    397)      1625.1  Rx         0127  8  00 00 00 00 00 00 00 00 
    398)      1643.6  Rx         037F  8  7C E0 52 20 01 02 00 00 
    399)      1664.7  Rx         0505  8  16 02 00 00 00 00 FF FF 
    400)      1674.6  Rx         03C1  8  65 00 00 00 00 00 00 00 
    401)      1674.9  Rx         0126  8  6A 6C 04 FF 7F FF 04 00 
    402)      1675.2  Rx         03C2  8  81 00 1B 40 00 00 00 00 
    403)      1675.4  Rx         0127  8  00 00 00 00 00 00 00 00 
    404)      1694.1  Rx         016B  8  73 8A 79 00 01 00 00 00 
    405)      1694.4  Rx         0166  8  C1 2B 79 00 00 00 00 00 
    406)      1694.7  Rx         0167  8  00 00 00 00 00 00 00 00 
    407)      1694.9  Rx         0168  8  00 00 00 00 00 00 00 00 
    408)      1695.2  Rx         016C  8  00 00 80 80 80 80 00 01 
    409)      1695.4  Rx         016D  8  00 00 00 00 10 00 00 00 
    410)      1695.7  Rx         016E  8  00 00 00 00 00 00 00 00 
    411)      1695.9  Rx         0171  8  F2 4C 79 00 00 00 00 00 
    412)      1696.2  Rx         0172  8  00 00 00 00 00 00 00 00 
    413)      1719.9  Rx         01AB  8  89 F2 46 10 00 60 FF 0B 
    414)      1720.1  Rx         0227  8  61 00 00 00 30 01 F8 07 
    415)      1720.3  Rx         01AC  8  FF 01 00 00 00 00 00 00 
    416)      1720.6  Rx         0472  8  48 6A 07 83 48 42 D8 3C 
    417)      1720.8  Rx         0226  8  19 FE 0E FF FF D3 FF 80 
    418)      1721.1  Rx         0473  8  33 92 07 15 00 00 00 03 
    419)      1724.8  Rx         0126  8  19 55 09 FF 7F FF 04 00 
    420)      1725.1  Rx         0127  8  00 00 00 00 00 00 00 00 
    421)      1743.6  Rx         037F  8  6C 00 52 20 01 02 00 00 
    422)      1763.6  Rx         0410  8  64 10 FF FF FF FF FF FF 
    423)      1763.9  Rx         0412  8  DC 00 00 00 00 00 00 00 
    424)      1764.1  Rx         0411  8  07 11 00 00 10 04 44 04 
    425)      1764.4  Rx         0413  8  08 60 00 00 00 00 00 00 
    426)      1764.6  Rx         0516  8  05 02 00 00 00 00 FF FF 
    427)      1764.9  Rx         0414  8  3C 20 40 00 08 00 00 00 
    428)      1765.1  Rx         0416  8  E5 40 00 00 00 00 54 01 
    429)      1765.4  Rx         0417  8  61 10 00 90 10 00 00 00 
    430)      1765.6  Rx         0418  8  60 20 00 80 02 1C 00 00 
    431)      1765.9  Rx         0419  8  B1 10 00 00 FC FF FF 03 
    432)      1766.1  Rx         048F  8  E3 10 41 00 01 00 00 00 
    433)      1774.9  Rx         0126  8  86 3D 0E FF 7F FF 04 00 
    434)      1775.1  Rx         0127  8  00 00 00 00 00 00 00 00 
    435)      1794.2  Rx         016B  8  80 14 7E 00 01 00 00 00 
    436)      1794.4  Rx         0166  8  C8 AE 7E 00 00 00 00 00 
    437)      1794.7  Rx         0167  8  00 00 00 00 00 00 00 00 
    438)      1795.0  Rx         0168  8  00 00 00 00 00 00 00 00 
    439)      1795.3  Rx         016C  8  00 00 80 80 80 80 00 01 
    440)      1795.5  Rx         016D  8  00 00 00 00 10 00 00 00 
    441)      1795.7  Rx         016E  8  00 00 00 00 00 00 00 00 
    442)      1796.0  Rx         0171  8  6D 24 7E 00 00 00 00 00 
    443)      1796.2  Rx         0172  8  00 00 00 00 00 00 00 00 
    444)      1819.8  Rx         01AB  8  FA CB 4B 10 00 60 FF 0B 
    445)      1820.1  Rx         01AC  8  FF 01 00 00 00 00 00 00 
    446)      1824.8  Rx         0126  8  FF 27 13 FF 7F FF 04 00 
    447)      1825.1  Rx         0127  8  00 00 00 00 00 00 00 00 
    448)      1843.6  Rx         037F  8  D5 10 52 20 01 02 00 00 
    449)      1864.7  Rx         0505  8  16 02 00 00 00 00 FF FF 
    450)      1874.7  Rx         03C1  8  65 00 00 00 00 00 00 00 
    451)      1874.9  Rx         0126  8  37 DE 18 FF 7F FF 04 00 
    452)      1875.1  Rx         03C2  8  81 00 1B 40 00 00 00 00 
    453)      1875.4  Rx         0127  8  00 00 00 00 00 00 00 00 
    454)      1894.2  Rx         016B  8  7A EA 83 00 01 00 00 00 
    455)      1894.4  Rx         0166  8  BC 1E 83 00 00 00 00 00 
    456)      1894.6  Rx         0167  8  00 00 00 00 00 00 00 00 
    457)      1894.9  Rx         0168  8  00 00 00 00 00 00 00 00 
    458)      1895.1  Rx         016C  8  00 00 80 80 80 80 00 01 
    459)      1895.4  Rx         016D  8  00 00 00 00 10 00 00 00 
    460)      1895.7  Rx         016E  8  00 00 00 00 00 00 00 00 
    461)      1895.9  Rx         0171  8  1C 93 83 00 00 00 00 00 
    462)      1896.2  Rx         0172  8  01 00 00 00 00 00 00 00 
    463)      1919.8  Rx         01AB  8  38 11 50 10 00 60 FF 0B 
    464)      1920.1  Rx         0227  8  61 00 00 00 30 01 F8 07 
    465)      1920.3  Rx         01AC  8  FF 01 00 00 00 00 00 00 
    466)      1920.6  Rx         0472  8  8A B3 08 83 48 42 D8 3C 
    467)      1920.8  Rx         0226  8  2D 0C 10 FF FF D3 FF 80 
    468)      1921.0  Rx         0473  8  F1 4B 08 15 00 00 00 03 
    469)      1924.8  Rx         0126  8  C1 F6 1D FF 7F FF 04 00 
    470)      1925.1  Rx         0127  8  00 00 00 00 00 00 00 00 
    471)      1943.6  Rx         037F  8  03 20 52 20 01 02 00 00 
    472)      1963.7  Rx         0410  8  64 10 FF FF FF FF FF FF 
    473)      1963.9  Rx         0412  8  DC 00 00 00 00 00 00 00 
    474)      1964.1  Rx         0411  8  07 11 00 00 10 04 44 04 
    475)      1964.4  Rx         0413  8  08 60 00 00 00 00 00 00 
    476)      1964.6  Rx         0516  8  05 02 00 00 00 00 FF FF 
    477)      1964.9  Rx         0414  8  3C 20 40 00 08 00 00 00 
    478)      1965.1  Rx         0416  8  E5 40 00 00 00 00 54 01 
    479)      1965.4  Rx         0417  8  61 10 00 90 10 00 00 00 
    480)      1965.6  Rx         0418  8  60 20 00 80 02 1C 00 00 
    481)      1965.9  Rx         0419  8  B1 10 00 00 FC FF FF 03 
    482)      1974.9  Rx         0126  8  C5 EA 22 FF 7F FF 04 00 
    483)      1975.1  Rx         0127  8  00 00 00 00 00 00 00 00 
    484)      1994.1  Rx         016B  8  C2 EB 88 00 01 00 00 00 
    485)      1994.4  Rx         0166  8  80 EF 88 00 00 00 00 00 
    486)      1994.6  Rx         0167  8  00 00 00 00 00 00 00 00 
    487)      1994.9  Rx         0168  8  00 00 00 00 00 00 00 00 
    488)      1995.2  Rx         016C  8  00 00 80 80 80 80 00 01 
    489)      1995.4  Rx         016D  8  00 00 00 00 10 00 00 00 
    490)      1995.7  Rx         016E  8  00 00 00 00 00 00 00 00 
    491)      1995.9  Rx         0171  8  D4 6A 88 00 00 00 00 00 
    492)      1996.2  Rx         0172  8  01 00 00 00 00 00 00 00 
    493)      2014.6  Rx         03C1  8  D5 10 00 00 41 00 00 00 
    494)      2019.8  Rx         01AB  8  CE 39 55 10 00 60 FF 0B 
    495)      2020.0  Rx         01AC  8  FF 01 00 00 00 00 00 00 
    496)      2023.7  Rx         0413  8  0F 74 40 00 00 00 00 20 
    497)      2024.8  Rx         0126  8  33 C2 27 FF 7F FF 04 00 
    498)      2025.1  Rx         0127  8  00 00 00 00 00 00 00 00 
    499)      2043.6  Rx         037F  8  BA 30 52 20 01 02 00 00 
    500)      2054.6  Rx         03C1  8  D5 10 00 00 41 00 00 00 
    501)      2063.7  Rx         0413  8  0F 74 40 00 00 00 00 20 
    502)      2064.7  Rx         0505  8  16 02 00 00 00 00 FF FF 
    503)      2074.6  Rx         03C2  8  81 00 1B 40 00 00 00 00 
    504)      2074.9  Rx         0126  8  FB 3B 2C FF 7F FF 04 00 
    505)      2075.1  Rx         0127  8  00 00 00 00 00 00 00 00 
    506)      2094.1  Rx         016B  8  BD C7 8D 00 01 00 00 00 
    507)      2094.4  Rx         0166  8  8F 04 8D 00 00 00 00 00 
    508)      2094.6  Rx         0167  8  00 00 00 00 00 00 00 00 
    509)      2094.9  Rx         03C1  8  D5 10 00 00 41 00 00 00 
    510)      2095.1  Rx         0168  8  00 00 00 00 00 00 00 00 
    511)      2095.4  Rx         016C  8  00 00 80 80 80 80 00 01 
    512)      2095.6  Rx         016D  8  00 00 00 00 10 00 00 00 
    513)      2095.9  Rx         016E  8  00 00 00 00 00 00 00 00 
    514)      2096.1  Rx         0171  8  67 2D 8D 00 00 00 00 00 
    515)      2096.4  Rx         0172  8  00 00 00 00 00 00 00 00 
    516)      2103.7  Rx         0413  8  0F 74 40 00 00 00 00 20 
    517)      2119.7  Rx         01AB  8  D4 40 5A 10 00 60 FF 0B 
    518)      2120.0  Rx         0227  8  61 00 00 00 30 01 F8 07 
    519)      2120.2  Rx         01AC  8  FF 01 00 00 00 00 00 00 
    520)      2120.5  Rx         0472  8  59 F4 09 83 48 42 D8 3C 
    521)      2120.7  Rx         0226  8  44 4C 12 FF FF D3 FF 80 
    522)      2120.9  Rx         0473  8  22 0C 09 15 00 00 00 03 
    523)      2124.8  Rx         0126  8  82 21 31 FF 7F FF 04 00 
    524)      2125.1  Rx         0127  8  00 00 00 00 00 00 00 00 
    525)      2143.6  Rx         037F  8  B2 40 52 20 01 02 00 00 
    526)      2163.7  Rx         0410  8  64 10 FF FF FF FF FF FF 
    527)      2163.9  Rx         0412  8  DC 00 00 00 00 00 00 00 
    528)      2164.2  Rx         0411  8  07 11 00 00 10 04 44 04 
    529)      2164.4  Rx         0413  8  0F 74 40 00 00 00 00 20 
    530)      2164.6  Rx         0516  8  05 02 00 00 00 00 FF FF 
    531)      2164.9  Rx         0414  8  3C 20 40 00 08 00 00 00 
    532)      2165.1  Rx         0416  8  E5 40 00 00 00 00 54 01 
    533)      2165.4  Rx         0417  8  61 10 00 90 10 00 00 00 
    534)      2165.6  Rx         0418  8  60 20 00 80 02 1C 00 00 
    535)      2165.9  Rx         0419  8  B1 10 00 00 FC FF FF 03 
    536)      2174.9  Rx         0126  8  1D 49 36 FF 7F FF 04 00 
    537)      2175.1  Rx         0127  8  00 00 00 00 00 00 00 00 
    538)      2194.1  Rx         016B  8  F9 77 92 00 01 00 00 00 
    539)      2194.4  Rx         0166  8  EC 69 92 00 00 00 00 00 
    540)      2194.7  Rx         0167  8  00 00 00 00 00 00 00 00 
    541)      2194.9  Rx         0168  8  00 00 00 00 00 00 00 00 
    542)      2195.2  Rx         016C  8  00 00 80 80 80 80 00 01 
    543)      2195.4  Rx         016D  8  00 00 00 00 10 00 00 00 
    544)      2195.7  Rx         016E  8  00 00 00 00 00 00 00 00 
    545)      2195.9  Rx         0171  8  77 77 92 00 00 00 00 00 
    546)      2196.1  Rx         0172  8  00 00 00 00 00 00 00 00 
    547)      2219.7  Rx         01AB  8  22 68 5F 10 00 60 FF 0B 
    548)      2220.0  Rx         01AC  8  FF 01 00 00 00 00 00 00 
    549)      2224.8  Rx         0126  8  6E 70 3B FF 7F FF 04 00 
    550)      2225.1  Rx         0127  8  00 00 00 00 00 00 00 00 
    551)      2243.6  Rx         037F  8  0B 50 52 20 01 02 00 00 
    552)      2264.7  Rx         0505  8  16 02 00 00 00 00 FF FF 
    553)      2274.7  Rx         03C1  8  D5 10 00 00 41 00 00 00 
    554)      2274.9  Rx         0126  8  90 60 40 FF 7F FF 04 00 
    555)      2275.1  Rx         03C2  8  81 00 1B 40 00 00 00 00 
    556)      2275.4  Rx         0127  8  00 00 00 00 00 00 00 00 
    557)      2294.1  Rx         016B  8  86 5B 97 00 01 00 00 00 
    558)      2294.4  Rx         0166  8  E3 82 97 00 00 00 00 00 
    559)      2294.6  Rx         0167  8  00 00 00 00 00 00 00 00 
    560)      2294.9  Rx         0168  8  00 00 00 00 00 00 00 00 
    561)      2295.1  Rx         016C  8  00 00 80 80 80 80 00 01 
    562)      2295.4  Rx         016D  8  00 00 00 00 10 00 00 00 
    563)      2295.6  Rx         016E  8  00 00 00 00 00 00 00 00 
    564)      2295.9  Rx         0171  8  81 5F 97 00 00 00 00 00 
    565)      2296.2  Rx         0172  8  00 00 00 00 00 00 00 00 
    566)      2319.7  Rx         01AB  8  F4 F4 64 10 00 60 FF 0B 
    567)      2320.0  Rx         0227  8  61 00 00 00 30 01 F8 07 
    568)      2320.2  Rx         01AC  8  FF 01 00 00 00 00 00 00 
    569)      2320.4  Rx         0472  8  2C 3C 0A 83 48 42 D8 3C 
    570)      2320.7  Rx         0226  8  FF 8C 14 FF FF D3 FF 80 
    571)      2320.9  Rx         0473  8  57 C4 0A 15 00 00 00 03 
    572)      2324.8  Rx         0126  8  66 48 45 FF 7F FF 04 00 
    573)      2325.1  Rx         0127  8  00 00 00 00 00 00 00 00 
    574)      2343.6  Rx         037F  8  DD 60 52 20 01 02 00 00 
    575)      2363.7  Rx         0410  8  64 10 FF FF FF FF FF FF 
    576)      2363.9  Rx         0412  8  DC 00 00 00 00 00 00 00 
    577)      2364.2  Rx         0411  8  07 11 00 00 10 04 44 04 
    578)      2364.4  Rx         0413  8  0F 74 40 00 00 00 00 20 
    579)      2364.6  Rx         0516  8  05 02 00 00 00 00 FF FF 
    580)      2364.9  Rx         0414  8  3C 20 40 00 08 00 00 00 
    581)      2365.1  Rx         0416  8  E5 40 00 00 00 00 54 01 
    582)      2365.4  Rx         0417  8  61 10 00 90 10 00 00 00 
    583)      2365.7  Rx         0418  8  60 20 00 80 02 1C 00 00 
    584)      2365.9  Rx         0419  8  B1 10 00 00 FC FF FF 03 
    585)      2374.9  Rx         0126  8  7C 31 4A FF 7F FF 04 00 
    586)      2375.1  Rx         0127  8  00 00 00 00 00 00 00 00 
    587)      2394.1  Rx         016B  8  3E 5A 9C 00 01 00 00 00 
    588)      2394.4  Rx         0166  8  DF 73 9C 00 00 00 00 00 
    589)      2394.6  Rx         0167  8  00 00 00 00 00 00 00 00 
    590)      2395.0  Rx         0168  8  00 00 00 00 00 00 00 00 
    591)      2395.2  Rx         016C  8  00 00 80 80 80 80 00 01 
    592)      2395.5  Rx         016D  8  00 00 00 00 10 00 00 00 
    593)      2395.7  Rx         016E  8  00 00 00 00 00 00 00 00 
    594)      2396.0  Rx         0171  8  0C C9 9C 00 00 00 00 00 
    595)      2396.3  Rx         0172  8  01 00 00 00 00 00 00 00 
    596)      2419.7  Rx         01AB  8  87 CD 69 10 00 60 FF 0B 
    597)      2420.0  Rx         01AC  8  FF 01 00 00 00 00 00 00 
    598)      2424.8  Rx         0126  8  8A 19 4F FF 7F FF 04 00 
    599)      2425.1  Rx         0127  8  00 00 00 00 00 00 00 00 
    600)      2443.7  Rx         037F  8  64 70 52 20 01 02 00 00 
    601)      2444.7  Rx         03C1  8  0A 20 00 00 00 00 00 00 
    602)      2464.6  Rx         0505  8  16 02 00 00 00 00 FF FF 
    603)      2473.8  Rx         0413  8  BC 84 00 00 00 00 00 10 
    604)      2474.6  Rx         03C2  8  81 00 1B 40 00 00 00 00 
    605)      2474.9  Rx         0126  8  48 C3 54 FF 7F FF 04 00 
    606)      2475.1  Rx         0127  8  00 00 00 00 00 00 00 00 
    607)      2484.7  Rx         03C1  8  0A 20 00 00 00 00 00 00 
    608)      2494.1  Rx         016B  8  5D C1 A1 00 01 00 00 00 
    609)      2494.4  Rx         0166  8  1C F0 A1 00 00 00 00 00 
    610)      2494.6  Rx         0167  8  00 00 00 00 00 00 00 00 
    611)      2494.9  Rx         0168  8  00 00 00 00 00 00 00 00 
    612)      2495.2  Rx         016C  8  00 00 80 80 80 80 00 01 
    613)      2495.5  Rx         016D  8  00 00 00 00 10 00 00 00 
    614)      2495.7  Rx         016E  8  00 00 00 00 00 00 00 00 
    615)      2496.0  Rx         0171  8  61 95 A1 00 00 00 00 00 
    616)      2496.2  Rx         0172  8  01 00 00 00 00 00 00 00 
    617)      2513.7  Rx         0413  8  BC 84 00 00 00 00 00 10 
    618)      2519.9  Rx         01AB  8  18 A5 6E 10 00 60 FF 0B 
    619)      2520.2  Rx         0227  8  61 00 00 00 30 01 F8 07 
    620)      2520.4  Rx         01AC  8  FF 01 00 00 00 00 00 00 
    621)      2520.6  Rx         0472  8  FF 7B 0B 83 48 42 D8 3C 
    622)      2520.8  Rx         0226  8  96 CC 16 FF FF D3 FF 80 
    623)      2521.1  Rx         0473  8  84 83 0B 15 00 00 00 03 
    624)      2524.6  Rx         03C1  8  0A 20 00 00 00 00 00 00 
    625)      2524.9  Rx         0126  8  3B FA 59 FF 7F FF 04 00 
    626)      2525.1  Rx         0127  8  00 00 00 00 00 00 00 00 
    627)      2543.6  Rx         037F  8  CD 80 52 20 01 02 00 00 
    628)      2553.7  Rx         0413  8  BC 84 00 00 00 00 00 10 
    629)      2563.7  Rx         0410  8  64 10 FF FF FF FF FF FF 
    630)      2564.0  Rx         0412  8  DC 00 00 00 00 00 00 00 
    631)      2564.2  Rx         0411  8  07 11 00 00 10 04 44 04 
    632)      2564.5  Rx         0414  8  3C 20 40 00 08 00 00 00 
    633)      2564.7  Rx         0516  8  05 02 00 00 00 00 FF FF 
    634)      2564.9  Rx         0416  8  E5 40 00 00 00 00 54 01 
    635)      2565.2  Rx         0417  8  61 10 00 90 10 00 00 00 
    636)      2565.5  Rx         0418  8  60 20 00 80 02 1C 00 00 
    637)      2565.7  Rx         0419  8  B1 10 00 00 FC FF FF 03 
    638)      2574.9  Rx         0126  8  A4 92 5E FF 7F FF 04 00 
    639)      2575.1  Rx         0127  8  00 00 00 00 00 00 00 00 
    640)      2583.7  Rx         0413  8  BC 84 00 00 00 00 00 10 
    641)      2594.2  Rx         016B  8  AE 5F A6 00 01 00 00 00 
    642)      2594.4  Rx         0166  8  15 75 A6 00 00 00 00 00 
    643)      2594.7  Rx         0167  8  00 00 00 00 00 00 00 00 
    644)      2594.9  Rx         0168  8  00 00 00 00 00 00 00 00 
    645)      2595.2  Rx         016C  8  00 00 80 80 80 80 00 01 
    646)      2595.4  Rx         016D  8  00 00 00 00 10 00 00 00 
    647)      2595.7  Rx         016E  8  00 00 00 00 00 00 00 00 
    648)      2595.9  Rx         0171  8  BB 92 A6 00 00 00 00 00 
    649)      2596.2  Rx         0172  8  00 00 00 00 00 00 00 00 
    650)      2619.8  Rx         01AB  8  61 BF 73 10 00 60 FF 0B 
    651)      2620.0  Rx         01AC  8  FF 01 00 00 00 00 00 00 
    652)      2624.9  Rx         0126  8  C9 CE 63 FF 7F FF 04 00 
    653)      2625.1  Rx         0127  8  00 00 00 00 00 00 00 00 
    654)      2643.7  Rx         037F  8  74 90 52 20 01 02 00 00 
    655)      2664.7  Rx         0505  8  16 02 00 00 00 00 FF FF 
    656)      2674.7  Rx         03C1  8  0A 20 00 00 00 00 00 00 
    657)      2674.9  Rx         0126  8  01 37 68 FF 7F FF 04 00 
    658)      2675.1  Rx         03C2  8  81 00 1B 40 00 00 00 00 
    659)      2675.4  Rx         0127  8  00 00 00 00 00 00 00 00 
    660)      2694.1  Rx         016B  8  A3 99 AB 00 01 00 00 00 
    661)      2694.4  Rx         0166  8  23 36 AB 00 00 00 00 00 
    662)      2694.6  Rx         0167  8  00 00 00 00 00 00 00 00 
    663)      2694.9  Rx         0168  8  00 00 00 00 00 00 00 00 
    664)      2695.2  Rx         016C  8  00 00 80 80 80 80 00 01 
    665)      2695.4  Rx         016D  8  00 00 00 00 10 00 00 00 
    666)      2695.7  Rx         016E  8  00 00 00 00 00 00 00 00 
    667)      2695.9  Rx         0171  8  C8 AB AB 00 00 00 00 00 
    668)      2696.2  Rx         0172  8  00 00 00 00 00 00 00 00 
    669)      2719.8  Rx         01AB  8  A9 46 78 10 00 60 FF 0B 
    670)      2720.1  Rx         0227  8  61 00 00 00 30 01 F8 07 
    671)      2720.3  Rx         01AC  8  FF 01 00 00 00 00 00 00 
    672)      2720.5  Rx         0472  8  E7 BC 0C 83 48 42 D8 3C 
    673)      2720.8  Rx         0226  8  A8 1D 18 FF FF D3 FF 80 
    674)      2721.0  Rx         0473  8  9C 44 0C 15 00 00 00 03 
    675)      2724.9  Rx         0126  8  F7 1F 6D FF 7F FF 04 00 
    676)      2725.1  Rx         0127  8  00 00 00 00 00 00 00 00 
    677)      2743.7  Rx         037F  8  A2 A0 52 20 01 02 00 00 
    678)      2763.7  Rx         0410  8  64 10 FF FF FF FF FF FF 
    679)      2764.0  Rx         0412  8  DC 00 00 00 00 00 00 00 
    680)      2764.2  Rx         0411  8  07 11 00 00 10 04 44 04 
    681)      2764.4  Rx         0413  8  BC 84 00 00 00 00 00 10 
    682)      2764.7  Rx         0516  8  05 02 00 00 00 00 FF FF 
    683)      2765.0  Rx         0414  8  3C 20 40 00 08 00 00 00 
    684)      2765.2  Rx         0416  8  E5 40 00 00 00 00 54 01 
    685)      2765.5  Rx         0417  8  61 10 00 90 10 00 00 00 
    686)      2765.7  Rx         0418  8  60 20 00 80 02 1C 00 00 
    687)      2766.0  Rx         0419  8  B1 10 00 00 FC FF FF 03 
    688)      2766.2  Rx         048F  8  E3 10 41 00 01 00 00 00 
    689)      2774.9  Rx         0126  8  E7 45 72 FF 7F FF 04 00 
    690)      2775.2  Rx         0127  8  00 00 00 00 00 00 00 00 
    691)      2794.1  Rx         016B  8  DE 5C B0 00 01 00 00 00 
    692)      2794.4  Rx         0166  8  4C 87 B0 00 00 00 00 00 
    693)      2794.7  Rx         0167  8  00 00 00 00 00 00 00 00 
    694)      2794.9  Rx         0168  8  00 00 00 00 00 00 00 00 
    695)      2795.2  Rx         016C  8  00 00 80 80 80 80 00 01 
    696)      2795.4  Rx         016D  8  00 00 00 00 10 00 00 00 
    697)      2795.7  Rx         016E  8  00 00 00 00 00 00 00 00 
    698)      2795.9  Rx         0171  8  0A 71 B0 00 00 00 00 00 
    699)      2796.2  Rx         0172  8  00 00 00 00 00 00 00 00 
    700)      2819.8  Rx         01AB  8  5F 6E 7D 10 00 60 FF 0B 
    701)      2820.1  Rx         01AC  8  FF 01 00 00 00 00 00 00 
    702)      2824.8  Rx         0126  8  11 6D 77 FF 7F FF 04 00 
    703)      2825.1  Rx         0127  8  00 00 00 00 00 00 00 00 
    704)      2843.7  Rx         037F  8  1B B0 52 20 01 02 00 00 
    705)      2864.7  Rx         0505  8  16 02 00 00 00 00 FF FF 
    706)      2874.7  Rx         03C1  8  0A 20 00 00 00 00 00 00 
    707)      2874.9  Rx         0126  8  D9 94 7C FF 7F FF 04 00 
    708)      2875.2  Rx         03C2  8  81 00 1B 40 00 00 00 00 
    709)      2875.4  Rx         0127  8  00 00 00 00 00 00 00 00 
    710)      2894.2  Rx         016B  8  A1 70 B5 00 01 00 00 00 
    711)      2894.4  Rx         0166  8  43 6C B5 00 00 00 00 00 
    712)      2894.7  Rx         0167  8  00 00 00 00 00 00 00 00 
    713)      2894.9  Rx         0168  8  00 00 00 00 00 00 00 00 
    714)      2895.2  Rx         016C  8  00 00 80 80 80 80 00 01 
    715)      2895.4  Rx         016D  8  00 00 00 00 10 00 00 00 
    716)      2895.7  Rx         016E  8  00 00 00 00 00 00 00 00 
    717)      2895.9  Rx         0171  8  B9 36 B5 00 00 00 00 00 
    718)      2896.2  Rx         0172  8  01 00 00 00 00 00 00 00 
    719)      2919.8  Rx         01AB  8  02 F6 82 10 00 60 FF 0B 
    720)      2920.0  Rx         0227  8  61 00 00 00 30 01 F8 07 
    721)      2920.3  Rx         01AC  8  FF 01 00 00 00 00 00 00 
    722)      2920.5  Rx         0472  8  34 FB 0D 83 48 42 D8 3C 
    723)      2920.7  Rx         0226  8  C1 5D 1A FF FF D3 FF 80 
    724)      2920.9  Rx         0473  8  4F 03 0D 15 00 00 00 03 
    725)      2923.8  Rx         0413  8  1F 94 40 00 00 00 00 20 
    726)      2924.8  Rx         0126  8  ED 4C 81 FF 7F FF 04 00 
    727)      2925.1  Rx         0127  8  00 00 00 00 00 00 00 00 
    728)      2943.7  Rx         037F  8  13 C0 52 20 01 02 00 00 
    729)      2963.7  Rx         0410  8  64 10 FF FF FF FF FF FF 
    730)      2964.0  Rx         0412  8  DC 00 00 00 00 00 00 00 
    731)      2964.2  Rx         0411  8  07 11 00 00 10 04 44 04 
    732)      2964.5  Rx         0413  8  1F 94 40 00 00 00 00 20 
    733)      2964.7  Rx         0516  8  05 02 00 00 00 00 FF FF 
    734)      2965.0  Rx         0414  8  3C 20 40 00 08 00 00 00 
    735)      2965.2  Rx         0416  8  E5 40 00 00 00 00 54 01 
    736)      2965.5  Rx         0417  8  61 10 00 90 10 00 00 00 
    737)      2965.7  Rx         0418  8  60 20 00 80 02 1C 00 00 
    738)      2966.0  Rx         0419  8  B1 10 00 00 FC FF FF 03 
    739)      2974.9  Rx         0126  8  72 24 86 FF 7F FF 04 00 
    740)      2975.1  Rx         0127  8  00 00 00 00 00 00 00 00 
    741)      2994.2  Rx         016B  8  20 04 BA 00 01 00 00 00 
    742)      2994.4  Rx         0166  8  73 41 BA 00 00 00 00 00 
    743)      2994.7  Rx         0167  8  00 00 00 00 00 00 00 00 
    744)      2995.0  Rx         0168  8  00 00 00 00 00 00 00 00 
    745)      2995.2  Rx         016C  8  00 00 80 80 80 80 00 01 
    746)      2995.5  Rx         016D  8  00 00 00 00 10 00 00 00 
    747)      2995.7  Rx         016E  8  00 00 00 00 00 00 00 00 
    748)      2996.0  Rx         0171  8  A3 4F BA 00 00 00 00 00 
    749)      2996.3  Rx         0172  8  01 00 00 00 00 00 00 00 
    750)      3003.8  Rx         0413  8  1F 94 40 00 00 00 00 20 
    751)      3019.8  Rx         01AB  8  F4 DE 87 10 00 60 FF 0B 
    752)      3020.0  Rx         01AC  8  FF 01 00 00 00 00 00 00 
    753)      3024.8  Rx         0126  8  01 1D 8B FF 7F FF 04 00 
    754)      3025.1  Rx         0127  8  00 00 00 00 00 00 00 00 
    755)      3043.7  Rx         037F  8  AA D0 52 20 01 02 00 00 
    756)      3064.7  Rx         0505  8  16 02 00 00 00 00 FF FF 
    757)      3074.7  Rx         03C1  8  0A 20 00 00 00 00 00 00 
    758)      3074.9  Rx         0126  8  C3 C7 90 FF 7F FF 04 00 
    759)      3075.1  Rx         03C2  8  81 00 1B 40 00 00 00 00 
    760)      3075.4  Rx         0127  8  00 00 00 00 00 00 00 00 
    761)      3094.2  Rx         016B  8  5F 28 BF 00 01 00 00 00 
    762)      3094.4  Rx         0166  8  7C AA BF 00 00 00 00 00 
    763)      3094.6  Rx         0167  8  00 00 00 00 00 00 00 00 
    764)      3095.0  Rx         0168  8  00 00 00 00 00 00 00 00 
    765)      3095.2  Rx         016C  8  00 00 80 80 80 80 00 01 
    766)      3095.5  Rx         016D  8  00 00 00 00 10 00 00 00 
    767)      3095.7  Rx         016E  8  00 00 00 00 00 00 00 00 
    768)      3096.0  Rx         0171  8  10 08 BF 00 00 00 00 00 
    769)      3096.3  Rx         0172  8  00 00 00 00 00 00 00 00 
    770)      3119.8  Rx         01AB  8  3C 27 8C 10 00 60 FF 0B 
    771)      3120.0  Rx         0227  8  61 00 00 00 30 01 F8 07 
    772)      3120.3  Rx         01AC  8  FF 01 00 00 00 00 00 00 
    773)      3120.5  Rx         0472  8  41 33 0E 83 48 42 D8 3C 
    774)      3120.8  Rx         0226  8  7A 9D 1C FF FF D3 FF 80 
    775)      3121.0  Rx         0473  8  3A CB 0E 15 00 00 00 03 
    776)      3123.8  Rx         0413  8  D3 A4 00 00 00 00 00 10 
    777)      3124.8  Rx         0126  8  35 EF 95 FF 7F FF 04 00 
    778)      3125.1  Rx         0127  8  00 00 00 00 00 00 00 00 
    779)      3143.7  Rx         037F  8  7C E0 52 20 01 02 00 00 
    780)      3163.8  Rx         0410  8  64 10 FF FF FF FF FF FF 
    781)      3164.0  Rx         0412  8  DC 00 00 00 00 00 00 00 
    782)      3164.3  Rx         0411  8  07 11 00 00 10 04 44 04 
    783)      3164.5  Rx         0413  8  D3 A4 00 00 00 00 00 10 
    784)      3164.7  Rx         0516  8  05 02 00 00 00 00 FF FF 
    785)      3165.0  Rx         0414  8  3C 20 40 00 08 00 00 00 
    786)      3165.3  Rx         0416  8  E5 40 00 00 00 00 54 01 
    787)      3165.5  Rx         0417  8  61 10 00 90 10 00 00 00 
    788)      3165.8  Rx         0418  8  60 20 00 80 02 1C 00 00 
    789)      3166.0  Rx         0419  8  B1 10 00 00 FC FF FF 03 
    790)      3174.9  Rx         0126  8  2F 96 9A FF 7F FF 04 00 
    791)      3175.2  Rx         0127  8  00 00 00 00 00 00 00 00 
    792)      3194.1  Rx         016B  8  FE 57 C4 00 01 00 00 00 
    793)      3194.4  Rx         0166  8  D8 8A C4 00 00 00 00 00 
    794)      3194.6  Rx         0167  8  00 00 00 00 00 00 00 00 
    795)      3194.9  Rx         0168  8  00 00 00 00 00 00 00 00 
    796)      3195.2  Rx         016C  8  00 00 80 80 80 80 00 01 
    797)      3195.4  Rx         016D  8  00 00 00 00 10 00 00 00 
    798)      3195.7  Rx         016E  8  00 00 00 00 00 00 00 00 
    799)      3195.9  Rx         0171  8  EE 18 C4 00 00 00 00 00 
    800)      3196.2  Rx         0172  8  00 00 00 00 00 00 00 00 
    801)      3203.8  Rx         0413  8  D3 A4 00 00 00 00 00 10 
    802)      3219.8  Rx         01AB  8  45 3D 91 10 00 60 FF 0B 
    803)      3220.0  Rx         01AC  8  FF 01 00 00 00 00 00 00 
    804)      3224.8  Rx         0126  8  D9 BE 9F FF 7F FF 04 00 
    805)      3225.1  Rx         0127  8  00 00 00 00 00 00 00 00 
    806)      3243.7  Rx         037F  8  6C 00 52 20 01 02 00 00 
    807)      3264.7  Rx         0505  8  16 02 00 00 00 00 FF FF 
    808)      3274.6  Rx         03C1  8  0A 20 00 00 00 00 00 00 
    809)      3274.9  Rx         0126  8  0F 22 A4 FF 7F FF 04 00 
    810)      3275.2  Rx         03C2  8  81 00 1B 40 00 00 00 00 
    811)      3275.4  Rx         0127  8  00 00 00 00 00 00 00 00 
    812)      3294.1  Rx         016B  8  F3 91 C9 00 01 00 00 00 
    813)      3294.4  Rx         0166  8  EE C9 C9 00 00 00 00 00 
    814)      3294.7  Rx         0167  8  00 00 00 00 00 00 00 00 
    815)      3295.0  Rx         0168  8  00 00 00 00 00 00 00 00 
    816)      3295.3  Rx         016C  8  00 00 80 80 80 80 00 01 
    817)      3295.5  Rx         016D  8  00 00 00 00 10 00 00 00 
    818)      3295.8  Rx         016E  8  00 00 00 00 00 00 00 00 
    819)      3296.0  Rx         0171  8  9D 21 C9 00 00 00 00 00 
    820)      3296.3  Rx         0172  8  00 00 00 00 00 00 00 00 
    821)      3319.7  Rx         01AB  8  DA 55 96 10 00 60 FF 0B 
    822)      3320.0  Rx         0227  8  61 00 00 00 30 01 F8 07 
    823)      3320.3  Rx         01AC  8  FF 01 00 00 00 00 00 00 
    824)      3320.5  Rx         0472  8  92 74 0F 83 48 42 D8 3C 
    825)      3320.7  Rx         0226  8  13 DD 1E FF FF D3 FF 80 
    826)      3321.0  Rx         0473  8  E9 8C 0F 15 00 00 00 03 
    827)      3323.8  Rx         0413  8  70 B4 40 00 00 00 00 20 
    828)      3324.9  Rx         0126  8  7C 1B A9 FF 7F FF 04 00 
    829)      3325.1  Rx         0127  8  00 00 00 00 00 00 00 00 
    830)      3343.7  Rx         037F  8  D5 10 52 20 01 02 00 00 
    831)      3363.8  Rx         0410  8  64 10 FF FF FF FF FF FF 
    832)      3364.0  Rx         0412  8  DC 00 00 00 00 00 00 00 
    833)      3364.2  Rx         0411  8  07 11 00 00 10 04 44 04 
    834)      3364.5  Rx         0413  8  70 B4 40 00 00 00 00 20 
    835)      3364.8  Rx         0516  8  05 02 00 00 00 00 FF FF 
    836)      3365.0  Rx         0414  8  3C 20 40 00 08 00 00 00 
    837)      3365.3  Rx         0416  8  E5 40 00 00 00 00 54 01 
    838)      3365.5  Rx         0417  8  61 10 00 90 10 00 00 00 
    839)      3365.8  Rx         0418  8  60 20 00 80 02 1C 00 00 
    840)      3366.0  Rx         0419  8  B1 10 00 00 FC FF FF 03 
    841)      3374.9  Rx         0126  8  E3 73 AE FF 7F FF 04 00 
    842)      3375.2  Rx         0127  8  00 00 00 00 00 00 00 00 
    843)      3394.2  Rx         016B  8  00 0F CE 00 01 00 00 00 
    844)      3394.4  Rx         0166  8  E7 4C CE 00 00 00 00 00 
    845)      3394.7  Rx         0167  8  00 00 00 00 00 00 00 00 
    846)      3395.0  Rx         0168  8  00 00 00 00 00 00 00 00 
    847)      3395.2  Rx         016C  8  00 00 80 80 80 80 00 01 
    848)      3395.5  Rx         016D  8  00 00 00 00 10 00 00 00 
    849)      3395.7  Rx         016E  8  00 00 00 00 00 00 00 00 
    850)      3396.0  Rx         0171  8  47 26 CE 00 00 00 00 00 
    851)      3396.2  Rx         0172  8  01 00 00 00 00 00 00 00 
    852)      3403.8  Rx         0413  8  70 B4 40 00 00 00 00 20 
    853)      3419.8  Rx         01AB  8  A9 6C 9B 10 00 60 FF 0B 
    854)      3420.0  Rx         01AC  8  FF 01 00 00 00 00 00 00 
    855)      3424.8  Rx         0126  8  9A 69 B3 FF 7F FF 04 00 
    856)      3425.1  Rx         0127  8  00 00 00 00 00 00 00 00 
    857)      3443.7  Rx         037F  8  03 20 52 20 01 02 00 00 
    858)      3464.7  Rx         0505  8  16 02 00 00 00 00 FF FF 
    859)      3474.7  Rx         03C1  8  0A 20 00 00 00 00 00 00 
    860)      3474.9  Rx         0126  8  52 90 B8 FF 7F FF 04 00 
    861)      3475.1  Rx         03C2  8  81 00 1B 40 00 00 00 00 
    862)      3475.4  Rx         0127  8  00 00 00 00 00 00 00 00 
    863)      3494.2  Rx         016B  8  C8 0D D3 00 01 00 00 00 
    864)      3494.4  Rx         0166  8  82 4F D3 00 00 00 00 00 
    865)      3494.6  Rx         0167  8  00 00 00 00 00 00 00 00 
    866)      3494.9  Rx         0168  8  00 00 00 00 00 00 00 00 
    867)      3495.2  Rx         016C  8  00 00 80 80 80 80 00 01 
    868)      3495.4  Rx         016D  8  00 00 00 00 10 00 00 00 
    869)      3495.7  Rx         016E  8  00 00 00 00 00 00 00 00 
    870)      3495.9  Rx         0171  8  3E 3C D3 00 00 00 00 00 
    871)      3496.2  Rx         0172  8  01 00 00 00 00 00 00 00 
    872)      3519.7  Rx         01AB  8  7F F0 A0 10 00 60 FF 0B 
    873)      3520.0  Rx         0227  8  61 00 00 00 30 01 F8 07 
    874)      3520.2  Rx         01AC  8  FF 01 00 00 00 00 00 00 
    875)      3520.4  Rx         0472  8  E4 90 10 83 48 42 D8 3C 
    876)      3520.7  Rx         0226  8  33 69 20 FF FF D3 FF 80 
    877)      3521.0  Rx         0473  8  9F 68 10 15 00 00 00 03 
    878)      3523.8  Rx         0413  8  62 C4 00 00 00 00 00 10 
    879)      3524.8  Rx         0126  8  A4 B8 BD FF 7F FF 04 00 
    880)      3525.1  Rx         0127  8  00 00 00 00 00 00 00 00 
    881)      3543.7  Rx         037F  8  BA 30 52 20 01 02 00 00 
    882)      3554.7  Rx         03C1  8  09 30 00 40 10 00 00 00 
    883)      3563.8  Rx         0410  8  64 10 FF FF FF FF FF FF 
    884)      3564.1  Rx         0412  8  DC 00 00 00 00 00 00 00 
    885)      3564.3  Rx         0411  8  07 11 00 00 10 04 44 04 
    886)      3564.5  Rx         0413  8  62 C4 00 00 00 00 00 10 
    887)      3564.8  Rx         0516  8  05 02 00 00 00 00 FF FF 
    888)      3565.0  Rx         0414  8  3C 20 40 00 08 00 00 00 
    889)      3565.3  Rx         0416  8  E5 40 00 00 00 00 54 01 
    890)      3565.5  Rx         0417  8  61 10 00 90 10 00 00 00 
    891)      3565.8  Rx         0418  8  60 20 00 80 02 1C 00 00 
    892)      3566.0  Rx         0419  8  B1 10 00 00 FC FF FF 03 
    893)      3574.9  Rx         0126  8  88 28 C2 FF 7F FF 04 00 
    894)      3575.1  Rx         0127  8  00 00 00 00 00 00 00 00 
    895)      3594.1  Rx         016B  8  70 0C D8 00 01 00 00 00 
    896)      3594.4  Rx         0166  8  BE BE D8 00 00 00 00 00 
    897)      3594.6  Rx         0167  8  00 00 00 00 00 00 00 00 
    898)      3594.9  Rx         03C1  8  09 30 00 40 10 00 00 00 
    899)      3595.2  Rx         0168  8  00 00 00 00 00 00 00 00 
    900)      3595.4  Rx         016C  8  00 00 80 80 80 80 00 01 
    901)      3595.7  Rx         016D  8  00 00 00 00 10 00 00 00 
    902)      3595.9  Rx         016E  8  00 00 00 00 00 00 00 00 
    903)      3596.1  Rx         0171  8  B3 AA D8 00 00 00 00 00 
    904)      3596.4  Rx         0172  8  00 00 00 00 00 00 00 00 
    905)      3603.8  Rx         0413  8  62 C4 00 00 00 00 00 10 
    906)      3619.7  Rx         01AB  8  89 D8 A5 10 00 60 FF 0B 
    907)      3619.9  Rx         01AC  8  FF 01 00 00 00 00 00 00 
    908)      3624.8  Rx         0126  8  7E 00 C7 FF 7F FF 04 00 
    909)      3625.1  Rx         0127  8  00 00 00 00 00 00 00 00 
    910)      3634.7  Rx         03C1  8  09 30 00 40 10 00 00 00 
    911)      3643.8  Rx         037F  8  B2 40 52 20 01 02 00 00 
    912)      3664.7  Rx         0505  8  16 02 00 00 00 00 FF FF 
    913)      3674.6  Rx         03C1  8  09 30 00 40 10 00 00 00 
    914)      3674.9  Rx         0126  8  B6 F9 CC FF 7F FF 04 00 
    915)      3675.2  Rx         03C2  8  81 00 1B 40 00 00 00 00 
    916)      3675.4  Rx         0127  8  00 00 00 00 00 00 00 00 
    917)      3694.1  Rx         016B  8  0F 20 DD 00 01 00 00 00 
    918)      3694.4  Rx         0166  8  B1 55 DD 00 00 00 00 00 
    919)      3694.7  Rx         0167  8  00 00 00 00 00 00 00 00 
    920)      3694.9  Rx         0168  8  00 00 00 00 00 00 00 00 
    921)      3695.2  Rx         016C  8  00 00 80 80 80 80 00 01 
    922)      3695.4  Rx         016D  8  00 00 00 00 10 00 00 00 
    923)      3695.7  Rx         016E  8  00 00 00 00 00 00 00 00 
    924)      3695.9  Rx         0171  8  45 82 DD 00 00 00 00 00 
    925)      3696.2  Rx         0172  8  00 00 00 00 00 00 00 00 
    926)      3719.7  Rx         01AB  8  93 A1 AA 10 00 60 FF 0B 
    927)      3720.0  Rx         0227  8  61 00 00 00 30 01 F8 07 
    928)      3720.2  Rx         01AC  8  FF 01 00 00 00 00 00 00 
    929)      3720.4  Rx         0472  8  37 D7 11 83 48 42 D8 3C 
    930)      3720.6  Rx         0226  8  5A 29 22 FF FF D3 FF 80 
    931)      3720.9  Rx         0473  8  4C 2F 11 15 00 00 00 03 
    932)      3723.8  Rx         0413  8  DE D1 10 00 00 00 00 08 
    933)      3724.8  Rx         0126  8  CF E3 D1 FF 7F FF 04 00 
    934)      3725.1  Rx         0127  8  00 00 00 00 00 00 00 00 
    935)      3743.8  Rx         037F  8  0B 50 52 20 01 02 00 00 
    936)      3763.8  Rx         0410  8  64 10 FF FF FF FF FF FF 
    937)      3764.1  Rx         0412  8  DC 00 00 00 00 00 00 00 
    938)      3764.3  Rx         0411  8  07 11 00 00 10 04 44 04 
    939)      3764.5  Rx         0413  8  DE D1 10 00 00 00 00 08 
    940)      3764.8  Rx         0516  8  05 02 00 00 00 00 FF FF 
    941)      3765.1  Rx         0414  8  3C 20 40 00 08 00 00 00 
    942)      3765.3  Rx         0416  8  E5 40 00 00 00 00 54 01 
    943)      3765.5  Rx         0417  8  61 10 00 90 10 00 00 00 
    944)      3765.8  Rx         0418  8  60 20 00 80 02 1C 00 00 
    945)      3766.0  Rx         0419  8  B1 10 00 00 FC FF FF 03 
    946)      3766.3  Rx         048F  8  E3 10 41 00 01 00 00 00 
    947)      3774.9  Rx         0126  8  50 8B D6 FF 7F FF 04 00 
    948)      3775.1  Rx         0127  8  00 00 00 00 00 00 00 00 
    949)      3794.2  Rx         016B  8  E0 09 E2 00 01 00 00 00 
    950)      3794.4  Rx         0166  8  74 B8 E2 00 00 00 00 00 
    951)      3794.7  Rx         0167  8  00 00 00 00 00 00 00 00 
    952)      3794.9  Rx         0168  8  00 00 00 00 00 00 00 00 
    953)      3795.1  Rx         016C  8  00 00 80 80 80 80 00 01 
    954)      3795.4  Rx         016D  8  00 00 00 00 10 00 00 00 
    955)      3795.6  Rx         016E  8  00 00 00 00 00 00 00 00 
    956)      3795.9  Rx         0171  8  41 9E E2 00 00 00 00 00 
    957)      3796.2  Rx         0172  8  00 00 00 00 00 00 00 00 
    958)      3803.8  Rx         0413  8  DE D1 10 00 00 00 00 08 
    959)      3819.7  Rx         01AB  8  65 89 AF 10 00 60 FF 0B 
    960)      3820.0  Rx         01AC  8  FF 01 00 00 00 00 00 00 
    961)      3824.8  Rx         0126  8  23 B2 DB FF 7F FF 04 00 
    962)      3825.1  Rx         0127  8  00 00 00 00 00 00 00 00 
    963)      3843.8  Rx         037F  8  DD 60 52 20 01 02 00 00 
    964)      3864.7  Rx         0505  8  16 02 00 00 00 00 FF FF 
    965)      3864.9  Rx         03C1  8  BB 40 00 00 00 00 00 00 
    966)      3874.7  Rx         03C2  8  81 00 1B 40 00 00 00 00 
    967)      3874.9  Rx         0126  8  F5 2E E0 FF 7F FF 04 00 
    968)      3875.1  Rx         0127  8  00 00 00 00 00 00 00 00 
    969)      3894.1  Rx         016B  8  9F 25 E7 00 01 00 00 00 
    970)      3894.4  Rx         0166  8  7B 53 E7 00 00 00 00 00 
    971)      3894.6  Rx         0167  8  00 00 00 00 00 00 00 00 
    972)      3894.9  Rx         0168  8  00 00 00 00 00 00 00 00 
    973)      3895.1  Rx         016C  8  00 00 80 80 80 80 00 01 
    974)      3895.4  Rx         016D  8  00 00 00 00 10 00 00 00 
    975)      3895.7  Rx         016E  8  00 00 00 00 00 00 00 00 
    976)      3895.9  Rx         0171  8  F2 D9 E7 00 00 00 00 00 
    977)      3896.2  Rx         0172  8  01 00 00 00 00 00 00 00 
    978)      3904.7  Rx         03C1  8  BB 40 00 00 00 00 00 00 
    979)      3919.7  Rx         01AB  8  A7 53 B4 10 00 60 FF 0B 
    980)      3919.9  Rx         0227  8  61 00 00 00 30 01 F8 07 
    981)      3920.2  Rx         01AC  8  FF 01 00 00 00 00 00 00 
    982)      3920.4  Rx         0472  8  42 1F 12 83 48 42 D8 3C 
    983)      3920.7  Rx         0226  8  E1 E9 24 FF FF D3 FF 80 
    984)      3920.9  Rx         0473  8  39 E7 12 15 00 00 00 03 
    985)      3924.8  Rx         0126  8  03 06 E5 FF 7F FF 04 00 
    986)      3925.1  Rx         0127  8  00 00 00 00 00 00 00 00 
    987)      3943.8  Rx         037F  8  64 70 52 20 01 02 00 00 
    988)      3944.7  Rx         03C1  8  BB 40 00 00 00 00 00 00 
    989)      3963.8  Rx         0410  8  64 10 FF FF FF FF FF FF 
    990)      3964.1  Rx         0412  8  DC 00 00 00 00 00 00 00 
    991)      3964.3  Rx         0411  8  07 11 00 00 10 04 44 04 
    992)      3964.6  Rx         0413  8  DE D1 10 00 00 00 00 08 
    993)      3964.8  Rx         0516  8  05 02 00 00 00 00 FF FF 
    994)      3965.1  Rx         0414  8  3C 20 40 00 08 00 00 00 
    995)      3965.3  Rx         0416  8  E5 40 00 00 00 00 54 01 
    996)      3965.5  Rx         0417  8  61 10 00 90 10 00 00 00 
    997)      3965.8  Rx         0418  8  60 20 00 80 02 1C 00 00 
    998)      3966.1  Rx         0419  8  B1 10 00 00 FC FF FF 03 
    999)      3974.9  Rx         0126  8  19 7F EA FF 7F FF 04 00 
   1000)      3975.1  Rx         0127  8  00 00 00 00 00 00 00 00 
   1001)      3994.1  Rx         016B  8  27 24 EC 00 01 00 00 00 
   1002)      3994.4  Rx         0166  8  47 A2 EC 00 00 00 00 00 
   1003)      3994.6  Rx         0167  8  00 00 00 00 00 00 00 00 
   1004)      3994.9  Rx         0168  8  00 00 00 00 00 00 00 00 
   1005)      3995.2  Rx         016C  8  00 00 80 80 80 80 00 01 
   1006)      3995.4  Rx         016D  8  00 00 00 00 10 00 00 00 
   1007)      3995.7  Rx         016E  8  00 00 00 00 00 00 00 00 
   1008)      3995.9  Rx         0171  8  3A 20 EC 00 00 00 00 00 
   1009)      3996.2  Rx         0172  8  01 00 00 00 00 00 00 00 
   1010)      4019.8  Rx         01AB  8  D4 6A B9 10 00 60 FF 0B 
   1011)      4020.1  Rx         01AC  8  FF 01 00 00 00 00 00 00 
   1012)      4024.8  Rx         0126  8  EF 57 EF FF 7F FF 04 00 
   1013)      4025.1  Rx         0127  8  00 00 00 00 00 00 00 00 
   1014)      4043.8  Rx         037F  8  CD 80 52 20 01 02 00 00 
   1015)      4064.7  Rx         0505  8  16 02 00 00 00 00 FF FF 
   1016)      4074.6  Rx         03C1  8  BB 40 00 00 00 00 00 00 
   1017)      4074.9  Rx         0126  8  2D 8D F4 FF 7F FF 04 00 
   1018)      4075.2  Rx         03C2  8  81 00 1B 40 00 00 00 00 
   1019)      4075.4  Rx         0127  8  00 00 00 00 00 00 00 00 
   1020)      4094.1  Rx         016B  8  EF 26 F1 00 01 00 00 00 
   1021)      4094.4  Rx         0166  8  22 A1 F1 00 00 00 00 00 
   1022)      4094.6  Rx         0167  8  00 00 00 00 00 00 00 00 
   1023)      4094.9  Rx         0168  8  00 00 00 00 00 00 00 00 
   1024)      4095.2  Rx         016C  8  00 00 80 80 80 80 00 01 
   1025)      4095.5  Rx         016D  8  00 00 00 00 10 00 00 00 
   1026)      4095.7  Rx         016E  8  00 00 00 00 00 00 00 00 
   1027)      4096.0  Rx         0171  8  06 55 F1 00 00 00 00 00 
   1028)      4096.2  Rx         0172  8  00 00 00 00 00 00 00 00 
   1029)      4119.7  Rx         01AB  8  4B 02 BE 10 00 60 FF 0B 
   1030)      4119.9  Rx         0227  8  61 00 00 00 30 01 F8 07 
   1031)      4120.2  Rx         01AC  8  FF 01 00 00 00 00 00 00 
   1032)      4120.4  Rx         0472  8  91 58 13 83 48 42 D8 3C 
   1033)      4120.7  Rx         0226  8  88 A9 26 FF FF D3 FF 80 
   1034)      4120.9  Rx         0473  8  EA A0 13 15 00 00 00 03 
   1035)      4124.8  Rx         0126  8  5E B4 F9 FF 7F FF 04 00 
   1036)      4125.1  Rx         0127  8  00 00 00 00 00 00 00 00 
   1037)      4143.8  Rx         037F  8  74 90 52 20 01 02 00 00 
   1038)      4163.9  Rx         0410  8  64 10 FF FF FF FF FF FF 
   1039)      4164.1  Rx         0412  8  DC 00 00 00 00 00 00 00 
   1040)      4164.3  Rx         0411  8  07 11 00 00 10 04 44 04 
   1041)      4164.6  Rx         0413  8  DE D1 10 00 00 00 00 08 
   1042)      4164.8  Rx         0516  8  05 02 00 00 00 00 FF FF 
   1043)      4165.1  Rx         0414  8  3C 20 40 00 08 00 00 00 
   1044)      4165.3  Rx         0416  8  E5 40 00 00 00 00 54 01 
   1045)      4165.6  Rx         0417  8  61 10 00 90 10 00 00 00 
   1046)      4165.8  Rx         0418  8  60 20 00 80 02 1C 00 00 
   1047)      4166.1  Rx         0419  8  B1 10 00 00 FC FF FF 03 
   1048)      4174.9  Rx         0126  8  C1 DC FE FF 7F FF 04 00 
   1049)      4175.1  Rx         0127  8  00 00 00 00 00 00 00 00 
   1050)      4193.9  Rx         0413  8  80 E1 00 00 00 00 00 04 
   1051)      4194.1  Rx         016B  8  1C B8 F6 00 01 00 00 00 
   1052)      4194.4  Rx         0166  8  2B 24 F6 00 00 00 00 00 
   1053)      4194.7  Rx         0167  8  00 00 00 00 00 00 00 00 
   1054)      4195.0  Rx         0168  8  00 00 00 00 00 00 00 00 
   1055)      4195.2  Rx         016C  8  00 00 80 80 80 80 00 01 
   1056)      4195.5  Rx         016D  8  00 00 00 00 10 00 00 00 
   1057)      4195.7  Rx         016E  8  00 00 00 00 00 00 00 00 
   1058)      4196.0  Rx         0171  8  99 3D F6 00 00 00 00 00 
   1059)      4196.2  Rx         0172  8  00 00 00 00 00 00 00 00 
   1060)      4219.7  Rx         01AB  8  0E D2 C3 10 00 60 FF 0B 
   1061)      4220.0  Rx         01AC  8  FF 01 00 00 00 00 00 00 
   1062)      4224.8  Rx         0126  8  F5 04 03 FF 7F FF 04 00 
   1063)      4225.1  Rx         0127  8  00 00 00 00 00 00 00 00 
   1064)      4233.9  Rx         0413  8  80 E1 00 00 00 00 00 04 
   1065)      4243.8  Rx         037F  8  A2 A0 52 20 01 02 00 00 
   1066)      4264.6  Rx         0505  8  16 02 00 00 00 00 FF FF 
   1067)      4273.9  Rx         0413  8  80 E1 00 00 00 00 00 04 
   1068)      4274.7  Rx         03C1  8  BB 40 00 00 00 00 00 00 
   1069)      4274.9  Rx         0126  8  3D FD 08 FF 7F FF 04 00 
   1070)      4275.1  Rx         03C2  8  81 00 1B 40 00 00 00 00 
   1071)      4275.4  Rx         0127  8  00 00 00 00 00 00 00 00 
   1072)      4294.2  Rx         016B  8  11 7E FB 00 01 00 00 00 
   1073)      4294.4  Rx         0166  8  1D 67 FB 00 00 00 00 00 
   1074)      4294.6  Rx         0167  8  00 00 00 00 00 00 00 00 
   1075)      4295.0  Rx         0168  8  00 00 00 00 00 00 00 00 
   1076)      4295.2  Rx         016C  8  00 00 80 80 80 80 00 01 
   1077)      4295.5  Rx         016D  8  00 00 00 00 10 00 00 00 
   1078)      4295.7  Rx         016E  8  00 00 00 00 00 00 00 00 
   1079)      4296.0  Rx         0171  8  EA 04 FB 00 00 00 00 00 
   1080)      4296.2  Rx         0172  8  00 00 00 00 00 00 00 00 
   1081)      4319.7  Rx         01AB  8  C6 2B C8 10 00 60 FF 0B 
   1082)      4320.0  Rx         0227  8  61 00 00 00 30 01 F8 07 
   1083)      4320.2  Rx         01AC  8  FF 01 00 00 00 00 00 00 
   1084)      4320.4  Rx         0472  8  89 9F 14 83 48 42 D8 3C 
   1085)      4320.7  Rx         0226  8  B6 78 28 FF FF D3 FF 80 
   1086)      4320.9  Rx         0473  8  F2 67 14 15 00 00 00 03 
   1087)      4324.8  Rx         0126  8  CB D5 0D FF 7F FF 04 00 
   1088)      4325.1  Rx         0127  8  00 00 00 00 00 00 00 00 
   1089)      4343.8  Rx         037F  8  1B B0 52 20 01 02 00 00 
   1090)      4363.9  Rx         0410  8  64 10 FF FF FF FF FF FF 
   1091)      4364.1  Rx         0412  8  DC 00 00 00 00 00 00 00 
   1092)      4364.3  Rx         0411  8  07 11 00 00 10 04 44 04 
   1093)      4364.6  Rx         0413  8  80 E1 00 00 00 00 00 04 
   1094)      4364.9  Rx         0516  8  05 02 00 00 00 00 FF FF 
   1095)      4365.1  Rx         0414  8  3C 20 40 00 08 00 00 00 
   1096)      4365.4  Rx         0416  8  E5 40 00 00 00 00 54 01 
   1097)      4365.6  Rx         0417  8  61 10 00 90 10 00 00 00 
   1098)      4365.8  Rx         0418  8  60 20 00 80 02 1C 00 00 
   1099)      4366.1  Rx         0419  8  B1 10 00 00 FC FF FF 03 
   1100)      4374.9  Rx         0126  8  DB 8F 12 FF 7F FF 04 00 
   1101)      4375.1  Rx         0127  8  00 00 00 00 00 00 00 00 
   1102)      4394.1  Rx         016B  8  5E 47 00 00 01 00 00 00 
   1103)      4394.4  Rx         0166  8  63 65 00 00 00 00 00 00 
   1104)      4394.6  Rx         0167  8  00 00 00 00 00 00 00 00 
   1105)      4394.9  Rx         0168  8  00 00 00 00 00 00 00 00 
   1106)      4395.1  Rx         016C  8  00 00 80 80 80 80 00 01 
   1107)      4395.4  Rx         016D  8  00 00 00 00 10 00 00 00 
   1108)      4395.7  Rx         016E  8  00 00 00 00 00 00 00 00 
   1109)      4395.9  Rx         0171  8  20 73 00 00 00 00 00 00 
   1110)      4396.2  Rx         0172  8  01 00 00 00 00 00 00 00 
   1111)      4419.7  Rx         01AB  8  30 03 CD 10 00 60 FF 0B 
   1112)      4419.9  Rx         01AC  8  FF 01 00 00 00 00 00 00 
   1113)      4424.8  Rx         0126  8  2D A7 17 FF 7F FF 04 00 
   1114)      4425.1  Rx         0127  8  00 00 00 00 00 00 00 00 
   1115)      4443.8  Rx         037F  8  13 C0 52 20 01 02 00 00 
   1116)      4464.6  Rx         0505  8  16 02 00 00 00 00 FF FF 
   1117)      4474.6  Rx         03C1  8  BB 40 00 00 00 00 00 00 
   1118)      4474.9  Rx         0126  8  E5 5E 1C FF 7F FF 04 00 
   1119)      4475.1  Rx         03C2  8  81 00 1B 40 00 00 00 00 
   1120)      4475.4  Rx         0127  8  00 00 00 00 00 00 00 00 
   1121)      4494.1  Rx         016B  8  21 6B 05 00 01 00 00 00 
   1122)      4494.4  Rx         0166  8  6C 8E 05 00 00 00 00 00 
   1123)      4494.6  Rx         0167  8  00 00 00 00 00 00 00 00 
   1124)      4494.9  Rx         0168  8  00 00 00 00 00 00 00 00 
   1125)      4495.2  Rx         016C  8  00 00 80 80 80 80 00 01 
   1126)      4495.5  Rx         016D  8  00 00 00 00 10 00 00 00 
   1127)      4495.7  Rx         016E  8  00 00 00 00 00 00 00 00 
   1128)      4496.0  Rx         0171  8  D6 5B 05 00 00 00 00 00 
   1129)      4496.2  Rx         0172  8  01 00 00 00 00 00 00 00 
   1130)      4519.7  Rx         01AB  8  20 59 D2 10 00 60 FF 0B 
   1131)      4520.0  Rx         0227  8  61 00 00 00 30 01 F8 07 
   1132)      4520.2  Rx         01AC  8  FF 01 00 00 00 00 00 00 
   1133)      4520.5  Rx         0472  8  5A D8 15 83 48 42 D8 3C 
   1134)      4520.7  Rx         0226  8  DF 38 2A FF FF D3 FF 80 
   1135)      4520.9  Rx         0473  8  21 20 15 15 00 00 00 03 
   1136)      4524.8  Rx         0126  8  88 02 21 FF 7F FF 04 00 
   1137)      4525.1  Rx         0127  8  00 00 00 00 00 00 00 00 
   1138)      4543.8  Rx         037F  8  AA D0 52 20 01 02 00 00 
   1139)      4563.9  Rx         0410  8  64 10 FF FF FF FF FF FF 
   1140)      4564.2  Rx         0412  8  DC 00 00 00 00 00 00 00 
   1141)      4564.4  Rx         0411  8  07 11 00 00 10 04 44 04 
   1142)      4564.6  Rx         0413  8  80 E1 00 00 00 00 00 04 
   1143)      4564.9  Rx         0516  8  05 02 00 00 00 00 FF FF 
   1144)      4565.2  Rx         0414  8  3C 20 40 00 08 00 00 00 
   1145)      4565.4  Rx         0416  8  E5 40 00 00 00 00 54 01 
   1146)      4565.6  Rx         0417  8  61 10 00 90 10 00 00 00 
   1147)      4565.9  Rx         0418  8  60 20 00 80 02 1C 00 00 
   1148)      4566.1  Rx         0419  8  B1 10 00 00 FC FF FF 03 
   1149)      4574.9  Rx         0126  8  17 6A 26 FF 7F FF 04 00 
   1150)      4575.1  Rx         0127  8  00 00 00 00 00 00 00 00 
   1151)      4594.2  Rx         016B  8  A0 1F 0A 00 01 00 00 00 
   1152)      4594.4  Rx         0166  8  5C A3 0A 00 00 00 00 00 
   1153)      4594.7  Rx         0167  8  00 00 00 00 00 00 00 00 
   1154)      4594.9  Rx         0168  8  00 00 00 00 00 00 00 00 
   1155)      4595.2  Rx         016C  8  00 00 80 80 80 80 00 01 
   1156)      4595.4  Rx         016D  8  00 00 00 00 10 00 00 00 
   1157)      4595.7  Rx         016E  8  00 00 00 00 00 00 00 00 
   1158)      4595.9  Rx         0171  8  89 4D 0A 00 00 00 00 00 
   1159)      4596.2  Rx         0172  8  00 00 00 00 00 00 00 00 
   1160)      4619.8  Rx         01AB  8  D6 71 D7 10 00 60 FF 0B 
   1161)      4620.0  Rx         01AC  8  FF 01 00 00 00 00 00 00 
   1162)      4624.0  Rx         0413  8  18 01 10 00 00 00 00 08 
   1163)      4624.8  Rx         0126  8  64 53 2B FF 7F FF 04 00 
   1164)      4625.1  Rx         0127  8  00 00 00 00 00 00 00 00 
   1165)      4643.9  Rx         037F  8  7C E0 52 20 01 02 00 00 
   1166)      4664.0  Rx         0413  8  18 01 10 00 00 00 00 08 
   1167)      4664.7  Rx         0505  8  16 02 00 00 00 00 FF FF 
   1168)      4665.0  Rx         03C1  8  0B 50 00 00 41 00 00 00 
   1169)      4674.7  Rx         03C2  8  81 00 1B 40 00 00 00 00 
   1170)      4674.9  Rx         0126  8  A6 89 30 FF 7F FF 04 00 
   1171)      4675.1  Rx         0127  8  00 00 00 00 00 00 00 00 
   1172)      4694.1  Rx         016B  8  DF 33 0F 00 01 00 00 00 
   1173)      4694.4  Rx         0166  8  53 48 0F 00 00 00 00 00 
   1174)      4694.6  Rx         0167  8  00 00 00 00 00 00 00 00 
   1175)      4694.9  Rx         0168  8  00 00 00 00 00 00 00 00 
   1176)      4695.2  Rx         016C  8  00 00 80 80 80 80 00 01 
   1177)      4695.4  Rx         016D  8  00 00 00 00 10 00 00 00 
   1178)      4695.7  Rx         016E  8  00 00 00 00 00 00 00 00 
   1179)      4695.9  Rx         0171  8  7F 65 0F 00 00 00 00 00 
   1180)      4696.2  Rx         0172  8  00 00 00 00 00 00 00 00 
   1181)      4703.9  Rx         0413  8  18 01 10 00 00 00 00 08 
   1182)      4704.7  Rx         03C1  8  0B 50 00 00 41 00 00 00 
   1183)      4719.8  Rx         01AB  8  1E 88 DC 10 00 60 FF 0B 
   1184)      4720.0  Rx         0227  8  61 00 00 00 30 01 F8 07 
   1185)      4720.3  Rx         01AC  8  FF 01 00 00 00 00 00 00 
   1186)      4720.5  Rx         0472  8  2F 10 16 83 48 42 D8 3C 
   1187)      4720.8  Rx         0226  8  64 F8 2C FF FF D3 FF 80 
   1188)      4721.0  Rx         0473  8  54 E8 16 15 00 00 00 03 
   1189)      4724.9  Rx         0126  8  50 A1 35 FF 7F FF 04 00 
   1190)      4725.1  Rx         0127  8  00 00 00 00 00 00 00 00 
   1191)      4743.9  Rx         037F  8  6C 00 52 20 01 02 00 00 
   1192)      4744.7  Rx         03C1  8  0B 50 00 00 41 00 00 00 
   1193)      4763.9  Rx         0410  8  64 10 FF FF FF FF FF FF 
   1194)      4764.2  Rx         0412  8  DC 00 00 00 00 00 00 00 
   1195)      4764.4  Rx         0411  8  07 11 00 00 10 04 44 04 
   1196)      4764.7  Rx         0413  8  18 01 10 00 00 00 00 08 
   1197)      4764.9  Rx         0516  8  05 02 00 00 00 00 FF FF 
   1198)      4765.2  Rx         0414  8  3C 20 40 00 08 00 00 00 
   1199)      4765.4  Rx         0416  8  E5 40 00 00 00 00 54 01 
   1200)      4765.6  Rx         0417  8  61 10 00 90 10 00 00 00 
   1201)      4765.9  Rx         0418  8  60 20 00 80 02 1C 00 00 
   1202)      4766.2  Rx         0419  8  B1 10 00 00 FC FF FF 03 
   1203)      4766.4  Rx         048F  8  E3 10 41 00 01 00 00 00 
   1204)      4774.9  Rx         0126  8  4A D8 3A FF 7F FF 04 00 
   1205)      4775.2  Rx         0127  8  00 00 00 00 00 00 00 00 
   1206)      4794.1  Rx         016B  8  A2 F6 14 00 01 00 00 00 
   1207)      4794.4  Rx         0166  8  3C F9 14 00 00 00 00 00 
   1208)      4794.7  Rx         0167  8  00 00 00 00 00 00 00 00 
   1209)      4794.9  Rx         0168  8  00 00 00 00 00 00 00 00 
   1210)      4795.2  Rx         016C  8  00 00 80 80 80 80 00 01 
   1211)      4795.4  Rx         016D  8  00 00 00 00 10 00 00 00 
   1212)      4795.7  Rx         016E  8  00 00 00 00 00 00 00 00 
   1213)      4795.9  Rx         0171  8  BD BF 14 00 00 00 00 00 
   1214)      4796.2  Rx         0172  8  00 00 00 00 00 00 00 00 
   1215)      4819.8  Rx         01AB  8  73 D4 E1 10 00 60 FF 0B 
   1216)      4820.0  Rx         01AC  8  FF 01 00 00 00 00 00 00 
   1217)      4823.9  Rx         0413  8  29 11 00 00 00 00 00 04 
   1218)      4824.8  Rx         0126  8  BC F0 3F FF 7F FF 04 00 
   1219)      4825.1  Rx         0127  8  00 00 00 00 00 00 00 00 
   1220)      4843.9  Rx         037F  8  D5 10 52 20 01 02 00 00 
   1221)      4864.0  Rx         0413  8  29 11 00 00 00 00 00 04 
   1222)      4864.7  Rx         0505  8  16 02 00 00 00 00 FF FF 
   1223)      4874.7  Rx         03C1  8  0B 50 00 00 41 00 00 00 
   1224)      4874.9  Rx         03C2  8  81 00 1B 40 00 00 00 00 
   1225)      4875.2  Rx         0126  8  42 E0 44 FF 7F FF 04 00 
   1226)      4875.4  Rx         0127  8  00 00 00 00 00 00 00 00 
   1227)      4894.2  Rx         016B  8  AF 30 19 00 01 00 00 00 
   1228)      4894.4  Rx         0166  8  0A BA 19 00 00 00 00 00 
   1229)      4894.7  Rx         0167  8  00 00 00 00 00 00 00 00 
   1230)      4894.9  Rx         0168  8  00 00 00 00 00 00 00 00 
   1231)      4895.2  Rx         016C  8  00 00 80 80 80 80 00 01 
   1232)      4895.4  Rx         016D  8  00 00 00 00 10 00 00 00 
   1233)      4895.7  Rx         016E  8  00 00 00 00 00 00 00 00 
   1234)      4895.9  Rx         0171  8  8B E9 19 00 00 00 00 00 
   1235)      4896.2  Rx         0172  8  01 00 00 00 00 00 00 00 
   1236)      4904.0  Rx         0413  8  29 11 00 00 00 00 00 04 
   1237)      4919.7  Rx         01AB  8  EC BC E6 10 00 60 FF 0B 
   1238)      4920.0  Rx         0227  8  61 00 00 00 30 01 F8 07 
   1239)      4920.2  Rx         01AC  8  FF 01 00 00 00 00 00 00 
   1240)      4920.4  Rx         0472  8  FC 57 17 83 48 42 D8 3C 
   1241)      4920.7  Rx         0226  8  0D B8 2E FF FF D3 FF 80 
   1242)      4920.9  Rx         0473  8  87 AF 17 15 00 00 00 03 
   1243)      4924.7  Rx         03C1  8  D4 60 00 00 00 00 00 00 
   1244)      4924.9  Rx         0126  8  31 D9 49 FF 7F FF 04 00 
   1245)      4925.2  Rx         0127  8  00 00 00 00 00 00 00 00 
   1246)      4943.9  Rx         037F  8  03 20 52 20 01 02 00 00 
   1247)      4964.0  Rx         0410  8  64 10 FF FF FF FF FF FF 
   1248)      4964.2  Rx         0412  8  DC 00 00 00 00 00 00 00 
   1249)      4964.4  Rx         0411  8  07 11 00 00 10 04 44 04 
   1250)      4964.7  Rx         0413  8  29 11 00 00 00 00 00 04 
   1251)      4964.9  Rx         03C1  8  D4 60 00 00 00 00 00 00 
   1252)      4965.2  Rx         0414  8  3C 20 40 00 08 00 00 00 
   1253)      4965.4  Rx         0516  8  05 02 00 00 00 00 FF FF 
   1254)      4965.7  Rx         0416  8  E5 40 00 00 00 00 54 01 
   1255)      4965.9  Rx         0417  8  61 10 00 90 10 00 00 00 
   1256)      4966.2  Rx         0418  8  60 20 00 80 02 1C 00 00 
   1257)      4966.4  Rx         0419  8  B1 10 00 00 FC FF FF 03 
   1258)      4974.9  Rx         0126  8  AE B1 4E FF 7F FF 04 00 
   1259)      4975.1  Rx         0127  8  00 00 00 00 00 00 00 00 
   1260)      4994.2  Rx         016B  8  5C AE 1E 00 01 00 00 00 
   1261)      4994.4  Rx         0166  8  03 3F 1E 00 00 00 00 00 
   1262)      4994.7  Rx         0167  8  00 00 00 00 00 00 00 00 
   1263)      4995.0  Rx         0168  8  00 00 00 00 00 00 00 00 
   1264)      4995.2  Rx         016C  8  00 00 80 80 80 80 00 01 
   1265)      4995.5  Rx         016D  8  00 00 00 00 10 00 00 00 
   1266)      4995.7  Rx         016E  8  00 00 00 00 00 00 00 00 
   1267)      4996.0  Rx         0171  8  14 81 1E 00 00 00 00 00 
   1268)      4996.3  Rx         0172  8  01 00 00 00 00 00 00 00 
   1269)      5004.7  Rx         03C1  8  D4 60 00 00 00 00 00 00 
   1270)      5019.8  Rx         01AB  8  9F 85 EB 10 00 60 FF 0B 
   1271)      5020.0  Rx         01AC  8  FF 01 00 00 00 00 00 00 
   1272)      5023.9  Rx         0413  8  D6 20 00 00 00 00 00 00 
   1273)      5024.8  Rx         0126  8  D7 AB 53 FF 7F FF 04 00 
   1274)      5025.1  Rx         0127  8  00 00 00 00 00 00 00 00 
   1275)      5043.9  Rx         037F  8  BA 30 52 20 01 02 00 00 
   1276)      5064.0  Rx         0413  8  D6 20 00 00 00 00 00 00 
   1277)      5064.6  Rx         0505  8  16 02 00 00 00 00 FF FF 
   1278)      5074.7  Rx         03C1  8  D4 60 00 00 00 00 00 00 
   1279)      5074.9  Rx         0126  8  1F 52 58 FF 7F FF 04 00 
   1280)      5075.1  Rx         03C2  8  81 00 1B 40 00 00 00 00 
   1281)      5075.4  Rx         0127  8  00 00 00 00 00 00 00 00 
   1282)      5094.1  Rx         016B  8  3F 35 23 00 01 00 00 00 
   1283)      5094.4  Rx         0166  8  C0 BC 23 00 00 00 00 00 
   1284)      5094.6  Rx         0167  8  00 00 00 00 00 00 00 00 
   1285)      5095.0  Rx         0168  8  00 00 00 00 00 00 00 00 
   1286)      5095.2  Rx         016C  8  00 00 80 80 80 80 00 01 
   1287)      5095.5  Rx         016D  8  00 00 00 00 10 00 00 00 
   1288)      5095.8  Rx         016E  8  00 00 00 00 00 00 00 00 
   1289)      5096.0  Rx         0171  8  3C B2 23 00 00 00 00 00 
   1290)      5096.3  Rx         0172  8  00 00 00 00 00 00 00 00 
   1291)      5104.0  Rx         0413  8  D6 20 00 00 00 00 00 00 
   1292)      5119.8  Rx         01AB  8  5D 5F F0 10 00 60 FF 0B 
   1293)      5120.0  Rx         0227  8  61 00 00 00 30 01 F8 07 
   1294)      5120.3  Rx         01AC  8  FF 01 00 00 00 00 00 00 
   1295)      5120.5  Rx         0472  8  3E 8E 18 83 48 42 D8 3C 
   1296)      5120.8  Rx         0226  8  39 4A 30 FF FF D3 FF 80 
   1297)      5121.0  Rx         0473  8  45 76 18 15 00 00 00 03 
   1298)      5124.8  Rx         0126  8  E9 7A 5D FF 7F FF 04 00 
   1299)      5125.1  Rx         0127  8  00 00 00 00 00 00 00 00 
   1300)      5143.9  Rx         037F  8  B2 40 52 20 01 02 00 00 
   1301)      5164.0  Rx         0410  8  64 10 FF FF FF FF FF FF 
   1302)      5164.2  Rx         0412  8  DC 00 00 00 00 00 00 00 
   1303)      5164.4  Rx         0411  8  07 11 00 00 10 04 44 04 
   1304)      5164.7  Rx         0413  8  D6 20 00 00 00 00 00 00 
   1305)      5165.0  Rx         0516  8  05 02 00 00 00 00 FF FF 
   1306)      5165.2  Rx         0414  8  3C 20 40 00 08 00 00 00 
   1307)      5165.4  Rx         0416  8  E5 40 00 00 00 00 54 01 
   1308)      5165.7  Rx         0417  8  61 10 00 90 10 00 00 00 
   1309)      5165.9  Rx         0418  8  60 20 00 80 02 1C 00 00 
   1310)      5166.2  Rx         0419  8  B1 10 00 00 FC FF FF 03 
   1311)      5174.9  Rx         0126  8  ED 66 62 FF 7F FF 04 00 
   1312)      5175.2  Rx         0127  8  00 00 00 00 00 00 00 00 
   1313)      5194.1  Rx         016B  8  87 34 28 00 01 00 00 00 
   1314)      5194.4  Rx         0166  8  FC 4D 28 00 00 00 00 00 
   1315)      5194.7  Rx         0167  8  00 00 00 00 00 00 00 00 
   1316)      5194.9  Rx         0168  8  00 00 00 00 00 00 00 00 
   1317)      5195.2  Rx         016C  8  00 00 80 80 80 80 00 01 
   1318)      5195.4  Rx         016D  8  00 00 00 00 10 00 00 00 
   1319)      5195.7  Rx         016E  8  00 00 00 00 00 00 00 00 
   1320)      5195.9  Rx         0171  8  F4 4B 28 00 00 00 00 00 
   1321)      5196.2  Rx         0172  8  00 00 00 00 00 00 00 00 
   1322)      5219.7  Rx         01AB  8  AB 77 F5 10 00 60 FF 0B 
   1323)      5220.0  Rx         01AC  8  FF 01 00 00 00 00 00 00 
   1324)      5224.8  Rx         0126  8  1B 4E 67 FF 7F FF 04 00 
   1325)      5225.1  Rx         0127  8  00 00 00 00 00 00 00 00 
   1326)      5243.9  Rx         037F  8  0B 50 52 20 01 02 00 00 
   1327)      5264.7  Rx         0505  8  16 02 00 00 00 00 FF FF 
   1328)      5274.7  Rx         03C1  8  D4 60 00 00 00 00 00 00 
   1329)      5274.9  Rx         0126  8  D3 B7 6C FF 7F FF 04 00 
   1330)      5275.2  Rx         03C2  8  81 00 1B 40 00 00 00 00 
   1331)      5275.4  Rx         0127  8  00 00 00 00 00 00 00 00 
   1332)      5294.1  Rx         016B  8  F8 18 2D 00 01 00 00 00 
   1333)      5294.4  Rx         0166  8  F3 A6 2D 00 00 00 00 00 
   1334)      5294.7  Rx         0167  8  00 00 00 00 00 00 00 00 
   1335)      5294.9  Rx         0168  8  00 00 00 00 00 00 00 00 
   1336)      5295.2  Rx         016C  8  00 00 80 80 80 80 00 01 
   1337)      5295.4  Rx         016D  8  00 00 00 00 10 00 00 00 
   1338)      5295.7  Rx         016E  8  00 00 00 00 00 00 00 00 
   1339)      5295.9  Rx         0171  8  02 63 2D 00 00 00 00 00 
   1340)      5296.2  Rx         0172  8  00 00 00 00 00 00 00 00 
   1341)      5319.7  Rx         01AB  8  B1 0E FA 10 00 60 FF 0B 
   1342)      5320.0  Rx         0227  8  61 00 00 00 30 01 F8 07 
   1343)      5320.2  Rx         01AC  8  FF 01 00 00 00 00 00 00 
   1344)      5320.4  Rx         0472  8  ED C9 19 83 48 42 D8 3C 
   1345)      5320.7  Rx         0226  8  50 0A 32 FF FF D3 FF 80 
   1346)      5320.9  Rx         0473  8  96 31 19 15 00 00 00 03 
   1347)      5324.8  Rx         0126  8  AA AD 71 FF 7F FF 04 00 
   1348)      5325.1  Rx         0127  8  00 00 00 00 00 00 00 00 
   1349)      5343.9  Rx         037F  8  DD 60 52 20 01 02 00 00 
   1350)      5364.0  Rx         0410  8  64 10 FF FF FF FF FF FF 
   1351)      5364.2  Rx         0412  8  DC 00 00 00 00 00 00 00 
   1352)      5364.5  Rx         0411  8  07 11 00 00 10 04 44 04 
   1353)      5364.7  Rx         0413  8  D6 20 00 00 00 00 00 00 
   1354)      5364.9  Rx         0516  8  05 02 00 00 00 00 FF FF 
   1355)      5365.2  Rx         0414  8  3C 20 40 00 08 00 00 00 
   1356)      5365.4  Rx         0416  8  E5 40 00 00 00 00 54 01 
   1357)      5365.7  Rx         0417  8  61 10 00 90 10 00 00 00 
   1358)      5366.0  Rx         0418  8  60 20 00 80 02 1C 00 00 
   1359)      5366.2  Rx         0419  8  B1 10 00 00 FC FF FF 03 
   1360)      5374.9  Rx         0126  8  35 C5 76 FF 7F FF 04 00 
   1361)      5375.1  Rx         0127  8  00 00 00 00 00 00 00 00 
   1362)      5394.2  Rx         016B  8  BC A8 32 00 01 00 00 00 
   1363)      5394.4  Rx         0166  8  90 CB 32 00 00 00 00 00 
   1364)      5394.6  Rx         0167  8  00 00 00 00 00 00 00 00 
   1365)      5394.9  Rx         0168  8  00 00 00 00 00 00 00 00 
   1366)      5395.1  Rx         016C  8  00 00 80 80 80 80 00 01 
   1367)      5395.4  Rx         016D  8  00 00 00 00 10 00 00 00 
   1368)      5395.7  Rx         016E  8  00 00 00 00 00 00 00 00 
   1369)      5395.9  Rx         0171  8  57 56 32 00 00 00 00 00 
   1370)      5396.2  Rx         0172  8  01 00 00 00 00 00 00 00 
   1371)      5419.8  Rx         01AB  8  47 26 FF 10 00 60 FF 0B 
   1372)      5420.0  Rx         01AC  8  FF 01 00 00 00 00 00 00 
   1373)      5424.9  Rx         0126  8  46 FC 7B FF 7F FF 04 00 
   1374)      5425.1  Rx         0127  8  00 00 00 00 00 00 00 00 
   1375)      5443.9  Rx         037F  8  64 70 52 20 01 02 00 00 
   1376)      5464.6  Rx         0505  8  16 02 00 00 00 00 FF FF 
   1377)      5474.7  Rx         03C1  8  D4 60 00 00 00 00 00 00 
   1378)      5474.9  Rx         0126  8  C9 E4 80 FF 7F FF 04 00 
   1379)      5475.1  Rx         03C2  8  81 00 1B 40 00 00 00 00 
   1380)      5475.4  Rx         0127  8  00 00 00 00 00 00 00 00 
   1381)      5494.1  Rx         016B  8  C3 84 37 00 01 00 00 00 
   1382)      5494.4  Rx         0166  8  9F 20 37 00 00 00 00 00 
   1383)      5494.6  Rx         0167  8  00 00 00 00 00 00 00 00 
   1384)      5495.0  Rx         0168  8  00 00 00 00 00 00 00 00 
   1385)      5495.2  Rx         016C  8  00 00 80 80 80 80 00 01 
   1386)      5495.5  Rx         016D  8  00 00 00 00 10 00 00 00 
   1387)      5495.7  Rx         016E  8  00 00 00 00 00 00 00 00 
   1388)      5496.0  Rx         0171  8  A1 7E 37 00 00 00 00 00 
   1389)      5496.3  Rx         0172  8  01 00 00 00 00 00 00 00 
   1390)      5519.8  Rx         01AB  8  C8 3E 04 10 00 60 FF 0B 
   1391)      5520.0  Rx         0227  8  61 00 00 00 30 01 F8 07 
   1392)      5520.3  Rx         01AC  8  FF 01 00 00 00 00 00 00 
   1393)      5520.5  Rx         0472  8  98 01 1A 83 48 42 D8 3C 
   1394)      5520.7  Rx         0226  8  EB CA 34 FF FF D3 FF 80 
   1395)      5521.0  Rx         0473  8  E3 F9 1A 15 00 00 00 03 
   1396)      5524.8  Rx         0126  8  3F CC 85 FF 7F FF 04 00 
   1397)      5525.1  Rx         0127  8  00 00 00 00 00 00 00 00 
   1398)      5544.0  Rx         037F  8  CD 80 52 20 01 02 00 00 
   1399)      5564.0  Rx         0410  8  64 10 FF FF FF FF FF FF 
   1400)      5564.2  Rx         0412  8  DC 00 00 00 00 00 00 00 
   1401)      5564.5  Rx         0411  8  07 11 00 00 10 04 44 04 
   1402)      5564.7  Rx         0413  8  D6 20 00 00 00 00 00 00 
   1403)      5565.0  Rx         0516  8  05 02 00 00 00 00 FF FF 
   1404)      5565.2  Rx         0414  8  3C 20 40 00 08 00 00 00 
   1405)      5565.5  Rx         0416  8  E5 40 00 00 00 00 54 01 
   1406)      5565.7  Rx         0417  8  61 10 00 90 10 00 00 00 
   1407)      5566.0  Rx         0418  8  60 20 00 80 02 1C 00 00 
   1408)      5566.2  Rx         0419  8  B1 10 00 00 FC FF FF 03 
   1409)      5574.9  Rx         0126  8  25 B5 8A FF 7F FF 04 00 
   1410)      5575.2  Rx         0127  8  00 00 00 00 00 00 00 00 
   1411)      5594.1  Rx         016B  8  7B 85 3C 00 01 00 00 00 
   1412)      5594.4  Rx         0166  8  A3 D1 3C 00 00 00 00 00 
   1413)      5594.7  Rx         0167  8  00 00 00 00 00 00 00 00 
   1414)      5594.9  Rx         0168  8  00 00 00 00 00 00 00 00 
   1415)      5595.2  Rx         016C  8  00 00 80 80 80 80 00 01 
   1416)      5595.4  Rx         016D  8  00 00 00 00 10 00 00 00 
   1417)      5595.7  Rx         016E  8  00 00 00 00 00 00 00 00 
   1418)      5595.9  Rx         0171  8  2C E8 3C 00 00 00 00 00 
   1419)      5596.2  Rx         0172  8  00 00 00 00 00 00 00 00 
   1420)      5619.7  Rx         01AB  8  BB 07 09 10 00 60 FF 0B 
   1421)      5620.0  Rx         01AC  8  FF 01 00 00 00 00 00 00 
   1422)      5624.8  Rx         0126  8  D3 9D 8F FF 7F FF 04 00 
   1423)      5625.1  Rx         0127  8  00 00 00 00 00 00 00 00 
   1424)      5644.0  Rx         037F  8  74 90 52 20 01 02 00 00 
   1425)      5664.7  Rx         0505  8  16 02 00 00 00 00 FF FF 
   1426)      5674.7  Rx         03C1  8  D4 60 00 00 00 00 00 00 
   1427)      5674.9  Rx         0126  8  11 47 94 FF 7F FF 04 00 
   1428)      5675.1  Rx         03C2  8  81 00 1B 40 00 00 00 00 
   1429)      5675.4  Rx         0127  8  00 00 00 00 00 00 00 00 
   1430)      5694.2  Rx         016B  8  6F 3D 41 00 01 00 00 00 
   1431)      5694.4  Rx         0166  8  0D 43 41 00 00 00 00 00 
   1432)      5694.7  Rx         0167  8  00 00 00 00 00 00 00 00 
   1433)      5694.9  Rx         0168  8  00 00 00 00 00 00 00 00 
   1434)      5695.2  Rx         016C  8  00 00 80 80 80 80 00 01 
   1435)      5695.4  Rx         016D  8  00 00 00 00 10 00 00 00 
   1436)      5695.7  Rx         016E  8  00 00 00 00 00 00 00 00 
   1437)      5695.9  Rx         0171  8  69 38 41 00 00 00 00 00 
   1438)      5696.2  Rx         0172  8  00 00 00 00 00 00 00 00 
   1439)      5714.6  Rx         03C1  8  D7 70 00 40 10 00 00 00 
   1440)      5719.8  Rx         01AB  8  24 6F 0E 10 00 60 FF 0B 
   1441)      5720.0  Rx         0227  8  61 00 00 00 30 01 F8 07 
   1442)      5720.3  Rx         01AC  8  FF 01 00 00 00 00 00 00 
   1443)      5720.5  Rx         0472  8  4B 46 1B 83 48 42 D8 3C 
   1444)      5720.7  Rx         0226  8  82 8A 36 FF FF D3 FF 80 
   1445)      5720.9  Rx         0473  8  30 BE 1B 15 00 00 00 03 
   1446)      5724.0  Rx         0413  8  CE 31 10 00 00 00 00 08 
   1447)      5724.8  Rx         0126  8  62 7E 99 FF 7F FF 04 00 
   1448)      5725.1  Rx         0127  8  00 00 00 00 00 00 00 00 
   1449)      5744.0  Rx         037F  8  A2 A0 52 20 01 02 00 00 
   1450)      5754.7  Rx         03C1  8  D7 70 00 40 10 00 00 00 
   1451)      5764.0  Rx         0410  8  64 10 FF FF FF FF FF FF 
   1452)      5764.3  Rx         0412  8  DC 00 00 00 00 00 00 00 
   1453)      5764.5  Rx         0411  8  07 11 00 00 10 04 44 04 
   1454)      5764.8  Rx         0413  8  CE 31 10 00 00 00 00 08 
   1455)      5765.0  Rx         0516  8  05 02 00 00 00 00 FF FF 
   1456)      5765.3  Rx         0414  8  3C 20 40 00 08 00 00 00 
   1457)      5765.5  Rx         0416  8  E5 40 00 00 00 00 54 01 
   1458)      5765.7  Rx         0417  8  61 10 00 90 10 00 00 00 
   1459)      5766.0  Rx         0418  8  60 20 00 80 02 1C 00 00 
   1460)      5766.3  Rx         0419  8  B1 10 00 00 FC FF FF 03 
   1461)      5766.5  Rx         048F  8  E3 10 41 00 01 00 00 00 
   1462)      5774.9  Rx         0126  8  FD 16 9E FF 7F FF 04 00 
   1463)      5775.1  Rx         0127  8  00 00 00 00 00 00 00 00 
   1464)      5794.2  Rx         016B  8  9C A3 46 00 01 00 00 00 
   1465)      5794.4  Rx         0166  8  04 C6 46 00 00 00 00 00 
   1466)      5794.7  Rx         03C1  8  D7 70 00 40 10 00 00 00 
   1467)      5794.9  Rx         0167  8  00 00 00 00 00 00 00 00 
   1468)      5795.1  Rx         0168  8  00 00 00 00 00 00 00 00 
   1469)      5795.4  Rx         016C  8  00 00 80 80 80 80 00 01 
   1470)      5795.7  Rx         016D  8  00 00 00 00 10 00 00 00 
